Circuit: * C:\Users\SnigdhaYS\Documents\LTSpice_LDO_Automation\Externally_Compensated\Miller_LDO_Sim_Benches_502\LDO_loopgain_IIIT.asc

Ignoring BSIM parameter XL
Ignoring BSIM parameter XW
Ignoring BSIM parameter XL
Ignoring BSIM parameter XW
Warning: Pd = 0 is less than W.
Warning: Ps = 0 is less than W.
Warning: Pd = 0 is less than W.
Warning: Ps = 0 is less than W.
Warning: Pd = 0 is less than W.
Warning: Ps = 0 is less than W.
Warning: Pd = 0 is less than W.
Warning: Ps = 0 is less than W.
Direct Newton iteration failed to find .op point.  (Use ".option noopiter" to skip.)
Starting Gmin stepping
Gmin = 10
Gmin = 1.07374
Gmin = 0.115292
Gmin = 0.0123794
Gmin = 0.00132923
Gmin = 0.000142725
Gmin = 1.5325e-005
Gmin = 1.6455e-006
Gmin = 1.76685e-007
Gmin = 1.89714e-008
Gmin = 2.03704e-009
Gmin = 2.18725e-010
Gmin = 2.34854e-011
Gmin = 2.52173e-012
Gmin = 2.70769e-013
Gmin = 0
Gmin stepping succeeded in finding the operating point.

Semiconductor Device Operating Points:
                        --- BSIM3 MOSFETS ---
Name:       mpass        m5          m4          m8          m7
Model:    pmos292p    pmos292p    pmos292p    nmos292p    nmos292p
Id:       -1.01e-02   -2.47e-05   -2.45e-05    5.00e-05    5.13e-05
Vgs:      -6.42e-01   -5.92e-01   -5.92e-01    5.94e-01    5.94e-01
Vds:      -4.00e-01   -6.42e-01   -5.92e-01    5.94e-01    1.00e+00
Vbs:       0.00e+00    0.00e+00    0.00e+00    0.00e+00    0.00e+00
Vth:      -5.10e-01   -4.55e-01   -4.55e-01    4.45e-01    4.44e-01
Vdsat:    -1.22e-01   -1.24e-01   -1.24e-01    1.16e-01    1.17e-01
Gm:        1.21e-01    3.02e-04    3.00e-04    5.97e-04    6.08e-04
Gds:       2.80e-03    2.61e-06    2.68e-06    3.65e-06    3.08e-06
Gmb        3.79e-02    9.70e-05    9.67e-05    1.73e-04    1.76e-04
Cbd:       0.00e+00    0.00e+00    0.00e+00    0.00e+00    0.00e+00
Cbs:       0.00e+00    0.00e+00    0.00e+00    0.00e+00    0.00e+00
Cgsov:     8.86e-13    8.94e-15    8.94e-15    8.58e-15    8.58e-15
Cgdov:     8.86e-13    8.94e-15    8.94e-15    8.58e-15    8.58e-15
Cgbov:     1.21e-19    4.81e-19    4.81e-19    9.66e-19    9.66e-19
dQgdVgb:   2.76e-12    5.62e-14    5.62e-14    8.47e-14    8.47e-14
dQgdVdb:  -8.86e-13   -8.92e-15   -8.92e-15   -8.47e-15   -8.46e-15
dQgdVsb:  -1.83e-12   -4.53e-14   -4.53e-14   -7.21e-14   -7.21e-14
dQddVgb:  -1.27e-12   -2.43e-14   -2.43e-14   -3.56e-14   -3.56e-14
dQddVdb:   8.86e-13    8.93e-15    8.93e-15    8.53e-15    8.51e-15
dQddVsb:   5.02e-13    2.03e-14    2.03e-14    3.56e-14    3.56e-14
dQbdVgb:  -2.24e-13   -7.67e-15   -7.67e-15   -1.35e-14   -1.35e-14
dQbdVdb:  -8.19e-16   -3.70e-18   -5.87e-18   -3.01e-18    1.20e-17
dQbdVsb:  -6.35e-14   -4.26e-15   -4.27e-15   -7.72e-15   -7.70e-15

Name:        m3          m2          m1
Model:    nmos292p    nmos292p    nmos292p
Id:        4.92e-05    2.45e-05    2.47e-05
Vgs:       5.94e-01    6.01e-01    6.02e-01
Vds:       3.98e-01    4.10e-01    3.60e-01
Vbs:       0.00e+00    0.00e+00    0.00e+00
Vth:       4.46e-01    4.61e-01    4.62e-01
Vdsat:     1.16e-01    1.09e-01    1.10e-01
Gm:        5.89e-04    3.05e-04    3.05e-04
Gds:       5.07e-06    3.09e-06    3.63e-06
Gmb        1.71e-04    8.85e-05    8.85e-05
Cbd:       0.00e+00    0.00e+00    0.00e+00
Cbs:       0.00e+00    0.00e+00    0.00e+00
Cgsov:     8.58e-15    3.31e-15    3.31e-15
Cgdov:     8.58e-15    3.31e-15    3.31e-15
Cgbov:     9.66e-19    6.86e-19    6.86e-19
dQgdVgb:   8.48e-14    2.52e-14    2.52e-14
dQgdVdb:  -8.53e-15   -3.28e-15   -3.29e-15
dQgdVsb:  -7.22e-14   -2.08e-14   -2.08e-14
dQddVgb:  -3.57e-14   -1.07e-14   -1.07e-14
dQddVdb:   8.58e-15    3.30e-15    3.31e-15
dQddVsb:   3.57e-14    9.75e-15    9.75e-15
dQbdVgb:  -1.34e-14   -3.79e-15   -3.78e-15
dQbdVdb:  -5.27e-17   -1.00e-17   -1.85e-17
dQbdVsb:  -7.76e-15   -2.00e-15   -2.00e-15


.step temp=-40°C
.step temp=27°C
.step temp=125°C

Date: Wed Nov 26 21:27:53 2025
Total elapsed time: 0.219 seconds.

tnom = 27
temp = 125
method = trap
totiter = 454
traniter = 0
tranpoints = 0
accept = 0
rejected = 0
matrix size = 12
fillins = 9
solver = Normal
Matrix Compiler1:      64 opcodes
Matrix Compiler2: off  [0.2]/0.2/1.0

