Freq.	V(out)
Step Information: Temp=-40  (Run: 1/3)
1.00000000000000e+001	(6.64726541675458e+001dB,1.78694140617017e+002°)
1.12201845430196e+001	(6.64720715950175e+001dB,1.78534866669284e+002°)
1.25892541179417e+001	(6.64713382907584e+001dB,1.78356185388182e+002°)
1.41253754462275e+001	(6.64704152914148e+001dB,1.78155739832560e+002°)
1.58489319246111e+001	(6.64692535829425e+001dB,1.77930890047511e+002°)
1.77827941003892e+001	(6.64677915203430e+001dB,1.77678680411287e+002°)
1.99526231496888e+001	(6.64659515921782e+001dB,1.77395803767347e+002°)
2.23872113856834e+001	(6.64636363676835e+001dB,1.77078562261933e+002°)
2.51188643150958e+001	(6.64607234266183e+001dB,1.76722824923200e+002°)
2.81838293126445e+001	(6.64570590270168e+001dB,1.76323982196537e+002°)
3.16227766016838e+001	(6.64524502132413e+001dB,1.75876897918113e+002°)
3.54813389233575e+001	(6.64466550062980e+001dB,1.75375859599455e+002°)
3.98107170553497e+001	(6.64393702515678e+001dB,1.74814528456118e+002°)
4.46683592150963e+001	(6.64302166292721e+001dB,1.74185891402808e+002°)
5.01187233627272e+001	(6.64187202668705e+001dB,1.73482218330315e+002°)
5.62341325190348e+001	(6.64042903422566e+001dB,1.72695029465796e+002°)
6.30957344480192e+001	(6.63861920522989e+001dB,1.71815079595918e+002°)
7.07945784384137e+001	(6.63635143750277e+001dB,1.70832368496456e+002°)
7.94328234724280e+001	(6.63351322239565e+001dB,1.69736190122206e+002°)
8.91250938133744e+001	(6.62996629489449e+001dB,1.68515236938392e+002°)
9.99999999999998e+001	(6.62554177726255e+001dB,1.67157780008434e+002°)
1.12201845430196e+002	(6.62003497787039e+001dB,1.65651949558172e+002°)
1.25892541179417e+002	(6.61320016081444e+001dB,1.63986143661043e+002°)
1.41253754462275e+002	(6.60474581589125e+001dB,1.62149592642120e+002°)
1.58489319246111e+002	(6.59433123063904e+001dB,1.60133101094639e+002°)
1.77827941003892e+002	(6.58156547233823e+001dB,1.57929974546379e+002°)
1.99526231496888e+002	(6.56601016648867e+001dB,1.55537110153903e+002°)
2.23872113856833e+002	(6.54718759728719e+001dB,1.52956188121046e+002°)
2.51188643150957e+002	(6.52459549392816e+001dB,1.50194844759004e+002°)
2.81838293126445e+002	(6.49772922862989e+001dB,1.47267648616571e+002°)
3.16227766016837e+002	(6.46611093137146e+001dB,1.44196656854959e+002°)
3.54813389233575e+002	(6.42932330654512e+001dB,1.41011326250279e+002°)
3.98107170553496e+002	(6.38704409566636e+001dB,1.37747615934204e+002°)
4.46683592150962e+002	(6.33907581820003e+001dB,1.34446253543187e+002°)
5.01187233627271e+002	(6.28536533644625e+001dB,1.31150317700357e+002°)
5.62341325190348e+002	(6.22600929248793e+001dB,1.27902461691172e+002°)
6.30957344480192e+002	(6.16124427120196e+001dB,1.24742200634858e+002°)
7.07945784384136e+002	(6.09142374756227e+001dB,1.21703666819041e+002°)
7.94328234724279e+002	(6.01698637162457e+001dB,1.18814112665477e+002°)
8.91250938133743e+002	(5.93842117876706e+001dB,1.16093259172324e+002°)
9.99999999999997e+002	(5.85623480738832e+001dB,1.13553415444212e+002°)
1.12201845430196e+003	(5.77092426264472e+001dB,1.11200180358678e+002°)
1.25892541179416e+003	(5.68295690171747e+001dB,1.09033495644503e+002°)
1.41253754462275e+003	(5.59275771754245e+001dB,1.07048837426100e+002°)
1.58489319246111e+003	(5.50070295003181e+001dB,1.05238384500315e+002°)
1.77827941003892e+003	(5.40711857157903e+001dB,1.03592061534215e+002°)
1.99526231496887e+003	(5.31228213862942e+001dB,1.02098407886666e+002°)
2.23872113856833e+003	(5.21642669572723e+001dB,1.00745260982965e+002°)
2.51188643150957e+003	(5.11974571426878e+001dB,9.95202667374682e+001°)
2.81838293126444e+003	(5.02239834872408e+001dB,9.84112412943659e+001°)
3.16227766016837e+003	(4.92451454932307e+001dB,9.74064120625287e+001°)
3.54813389233574e+003	(4.82619976599569e+001dB,9.64945649495692e+001°)
3.98107170553496e+003	(4.72753911599553e+001dB,9.56651212702533e+001°)
4.46683592150961e+003	(4.62860097739289e+001dB,9.49081635675391e+001°)
5.01187233627270e+003	(4.52944002455691e+001dB,9.42144254190625e+001°)
5.62341325190347e+003	(4.43009975071120e+001dB,9.35752566298916e+001°)
6.30957344480190e+003	(4.33061453522459e+001dB,9.29825721792776e+001°)
7.07945784384135e+003	(4.23101131573950e+001dB,9.24287908906038e+001°)
7.94328234724278e+003	(4.13131092183014e+001dB,9.19067679559637e+001°)
8.91250938133741e+003	(4.03152912040437e+001dB,9.14097240729472e+001°)
9.99999999999995e+003	(3.93167741522665e+001dB,9.09311729457308e+001°)
1.12201845430196e+004	(3.83176363472532e+001dB,9.04648481822064e+001°)
1.25892541179416e+004	(3.73179233415529e+001dB,9.00046301164437e+001°)
1.41253754462275e+004	(3.63176503041379e+001dB,8.95444727501959e+001°)
1.58489319246111e+004	(3.53168028036503e+001dB,8.90783308021883e+001°)
1.77827941003891e+004	(3.43153360632269e+001dB,8.86000867564636e+001°)
1.99526231496887e+004	(3.33131726521831e+001dB,8.81034777998577e+001°)
2.23872113856833e+004	(3.23101985078096e+001dB,8.75820226335935e+001°)
2.51188643150957e+004	(3.13062571061891e+001dB,8.70289483459946e+001°)
2.81838293126444e+004	(3.03011415232929e+001dB,8.64371178652042e+001°)
3.16227766016836e+004	(2.92945840467608e+001dB,8.57989590084768e+001°)
3.54813389233573e+004	(2.82862429166119e+001dB,8.51063968587345e+001°)
3.98107170553495e+004	(2.72756856945796e+001dB,8.43507921964656e+001°)
4.46683592150960e+004	(2.62623686964748e+001dB,8.35228900785428e+001°)
5.01187233627269e+004	(2.52456118868316e+001dB,8.26127844805000e+001°)
5.62341325190346e+004	(2.42245686576011e+001dB,8.16099073022534e+001°)
6.30957344480189e+004	(2.31981900352464e+001dB,8.05030530540137e+001°)
7.07945784384133e+004	(2.21651831452387e+001dB,7.92804541960797e+001°)
7.94328234724276e+004	(2.11239642948646e+001dB,7.79299262629125e+001°)
8.91250938133740e+004	(2.00726079224769e+001dB,7.64391061451452e+001°)
9.99999999999993e+004	(1.90087940244322e+001dB,7.47958103685622e+001°)
1.12201845430196e+005	(1.79297586136789e+001dB,7.29885413636455e+001°)
1.25892541179416e+005	(1.68322543122148e+001dB,7.10071661684398e+001°)
1.41253754462274e+005	(1.57125311782243e+001dB,6.88437804772646e+001°)
1.58489319246110e+005	(1.45663508375263e+001dB,6.64937477166583e+001°)
1.77827941003891e+005	(1.33890489763372e+001dB,6.39568649820430e+001°)
1.99526231496887e+005	(1.21756607854461e+001dB,6.12385554592609e+001°)
2.23872113856832e+005	(1.09211192499356e+001dB,5.83509270623951e+001°)
2.51188643150956e+005	(9.62052584711312e+000dB,5.53134853187680e+001°)
2.81838293126443e+005	(8.26947734474532e+000dB,5.21532695886785e+001°)
3.16227766016835e+005	(6.86441376657615e+000dB,4.89042217540128e+001°)
3.54813389233573e+005	(5.40293698921330e+000dB,4.56057093073547e+001°)
3.98107170553494e+005	(3.88404404499985e+000dB,4.23002960360858e+001°)
4.46683592150960e+005	(2.30822914563563e+000dB,3.90310356665646e+001°)
5.01187233627268e+005	(6.77433096727820e-001dB,3.58386911838269e+001°)
5.62341325190344e+005	(-1.00514923013096e+000dB,3.27593031515301e+001°)
6.30957344480188e+005	(-2.73536441317732e+000dB,2.98224354489117e+001°)
7.07945784384132e+005	(-4.50844462128209e+000dB,2.70502559943199e+001°)
7.94328234724275e+005	(-6.31934650555299e+000dB,2.44574282240870e+001°)
8.91250938133738e+005	(-8.16304386308800e+000dB,2.20516529257343e+001°)
9.99999999999991e+005	(-1.00347514606778e+001dB,1.98346354807454e+001°)
1.12201845430195e+006	(-1.19300746930686e+001dB,1.78032549883602e+001°)
1.25892541179416e+006	(-1.38450921041914e+001dB,1.59507552992494e+001°)
1.41253754462274e+006	(-1.57763843160050e+001dB,1.42678373654339e+001°)
1.58489319246110e+006	(-1.77210246243575e+001dB,1.27435883322139e+001°)
1.77827941003891e+006	(-1.96765451848043e+001dB,1.13662258489965e+001°)
1.99526231496886e+006	(-2.16408899440511e+001dB,1.01236640885695e+001°)
2.23872113856832e+006	(-2.36123624086039e+001dB,9.00392309227814e+000°)
2.51188643150956e+006	(-2.55895736084119e+001dB,7.99540894100635e+000°)
2.81838293126443e+006	(-2.75713934586422e+001dB,7.08709239792633e+000°)
3.16227766016835e+006	(-2.95569071693298e+001dB,6.26861078810708e+000°)
3.54813389233572e+006	(-3.15453773145551e+001dB,5.53031378313994e+000°)
3.98107170553494e+006	(-3.35362115305041e+001dB,4.86326951402891e+000°)
4.46683592150959e+006	(-3.55289354509386e+001dB,4.25924358766665e+000°)
5.01187233627268e+006	(-3.75231703157142e+001dB,3.71066034813517e+000°)
5.62341325190344e+006	(-3.95186146332372e+001dB,3.21055313605099e+000°)
6.30957344480187e+006	(-4.15150292923727e+001dB,2.75250829855271e+000°)
7.07945784384131e+006	(-4.35122255709833e+001dB,2.33060619550755e+000°)
7.94328234724274e+006	(-4.55100555566252e+001dB,1.93936133527601e+000°)
8.91250938133737e+006	(-4.75084045678353e+001dB,1.57366296640587e+000°)
9.99999999999990e+006	(-4.95071852352275e+001dB,1.22871687505704e+000°)
1.12201845430195e+007	(-5.15063329670632e+001dB,8.99988732228239e-001°)
1.25892541179415e+007	(-5.35058025829638e+001dB,5.83149054269599e-001°)
1.41253754462274e+007	(-5.55055659521587e+001dB,2.74019650712728e-001°)
1.58489319246110e+007	(-5.75056105199526e+001dB,-3.14786893856410e-002°)
1.77827941003890e+007	(-5.95059386491902e+001dB,-3.37377594503598e-001°)
1.99526231496886e+007	(-6.15065677437920e+001dB,-6.47711947145092e-001°)
2.23872113856832e+007	(-6.35075311604399e+001dB,-9.66570516409647e-001°)
2.51188643150955e+007	(-6.55088799536980e+001dB,-1.29814671124104e+000°)
2.81838293126442e+007	(-6.75106855407754e+001dB,-1.64678971043065e+000°)
3.16227766016834e+007	(-6.95130434162060e+001dB,-2.01705611160361e+000°)
3.54813389233572e+007	(-7.15160780952319e+001dB,-2.41376206746832e+000°)
3.98107170553493e+007	(-7.35199495186509e+001dB,-2.84203562142613e+000°)
4.46683592150958e+007	(-7.55248612117595e+001dB,-3.30736858472284e+000°)
5.01187233627267e+007	(-7.75310705552107e+001dB,-3.81566677026268e+000°)
5.62341325190343e+007	(-7.95389015936972e+001dB,-4.37329665567691e+000°)
6.30957344480186e+007	(-8.15487608738383e+001dB,-4.98712551406862e+000°)
7.07945784384130e+007	(-8.35611568548979e+001dB,-5.66455062915447e+000°)
7.94328234724272e+007	(-8.55767234562222e+001dB,-6.41351128821480e+000°)
8.91250938133735e+007	(-8.75962482622663e+001dB,-7.24247469835237e+000°)
9.99999999999989e+007	(-8.96207057499157e+001dB,-8.16038369216792e+000°)
1.12201845430195e+008	(-9.16512955576557e+001dB,-9.17655004150551e+000°)
1.25892541179415e+008	(-9.36894851729435e+001dB,-1.03004725198456e+001°)
1.41253754462274e+008	(-9.57370553277711e+001dB,-1.15415540361400e+001°)
1.58489319246109e+008	(-9.77961446925196e+001dB,-1.29086883272042e+001°)
1.77827941003890e+008	(-9.98692879908329e+001dB,-1.44096859602143e+001°)
1.99526231496886e+008	(-1.01959438382304e+002dB,-1.60505152258958e+001°)
2.23872113856831e+008	(-1.04069961121960e+002dB,-1.78343507549101e+001°)
2.51188643150955e+008	(-1.06204581886980e+002dB,-1.97604568131671e+001°)
2.81838293126442e+008	(-1.08367271309229e+002dB,-2.18229868969015e+001°)
3.16227766016834e+008	(-1.10562049477925e+002dB,-2.40098540492949e+001°)
3.54813389233571e+008	(-1.12792702989528e+002dB,-2.63019035650238e+001°)
3.98107170553492e+008	(-1.15062423884701e+002dB,-2.86726737527500e+001°)
4.46683592150958e+008	(-1.17373402922439e+002dB,-3.10890244841162e+001°)
5.01187233627266e+008	(-1.19726433360197e+002dB,-3.35128173676586e+001°)
5.62341325190342e+008	(-1.22120596855778e+002dB,-3.59036439091537e+001°)
6.30957344480185e+008	(-1.24553101976862e+002dB,-3.82223590857608e+001°)
7.07945784384129e+008	(-1.27019325125308e+002dB,-4.04349595848970e+001°)
7.94328234724271e+008	(-1.29513068238597e+002dB,-4.25162198750262e+001°)
8.91250938133734e+008	(-1.32027007732560e+002dB,-4.44524999238725e+001°)
1.00000000000000e+009	(-1.34553275071942e+002dB,-4.62432515545145e+001°)
Step Information: Temp=27  (Run: 2/3)
1.00000000000000e+001	(6.21630621202428e+001dB,1.78824550164972e+002°)
1.12201845430196e+001	(6.21625902198608e+001dB,1.78681171029060e+002°)
1.25892541179417e+001	(6.21619962053786e+001dB,1.78520316692588e+002°)
1.41253754462275e+001	(6.21612485009596e+001dB,1.78339862962554e+002°)
1.58489319246111e+001	(6.21603073798690e+001dB,1.78137429794060e+002°)
1.77827941003892e+001	(6.21591228685248e+001dB,1.77910351444221e+002°)
1.99526231496888e+001	(6.21576321163180e+001dB,1.77655643546928e+002°)
2.23872113856834e+001	(6.21557560977964e+001dB,1.77369966962066e+002°)
2.51188643150958e+001	(6.21533954821090e+001dB,1.77049588327333e+002°)
2.81838293126445e+001	(6.21504254663398e+001dB,1.76690337360940e+002°)
3.16227766016838e+001	(6.21466893237423e+001dB,1.76287561148492e+002°)
3.54813389233575e+001	(6.21419903644541e+001dB,1.75836075923639e+002°)
3.98107170553497e+001	(6.21360819452225e+001dB,1.75330117255238e+002°)
4.46683592150963e+001	(6.21286550974414e+001dB,1.74763290130858e+002°)
5.01187233627272e+001	(6.21193232729598e+001dB,1.74128521238282e+002°)
5.62341325190348e+001	(6.21076036417749e+001dB,1.73418016869247e+002°)
6.30957344480192e+001	(6.20928943275143e+001dB,1.72623231393491e+002°)
7.07945784384137e+001	(6.20744469566106e+001dB,1.71734853275244e+002°)
7.94328234724280e+001	(6.20513339585279e+001dB,1.70742818221442e+002°)
8.91250938133744e+001	(6.20224102372903e+001dB,1.69636362316229e+002°)
9.99999999999998e+001	(6.19862692100941e+001dB,1.68404131869561e+002°)
1.12201845430196e+002	(6.19411938719567e+001dB,1.67034370956965e+002°)
1.25892541179417e+002	(6.18851046114301e+001dB,1.65515211682507e+002°)
1.41253754462275e+002	(6.18155070902974e+001dB,1.63835094951306e+002°)
1.58489319246111e+002	(6.17294456919136e+001dB,1.61983349130075e+002°)
1.77827941003892e+002	(6.16234708065804e+001dB,1.59950947640107e+002°)
1.99526231496888e+002	(6.14936312910529e+001dB,1.57731450723703e+002°)
2.23872113856833e+002	(6.13355061584927e+001dB,1.55322107745048e+002°)
2.51188643150957e+002	(6.11442907589567e+001dB,1.52725052441172e+002°)
2.81838293126445e+002	(6.09149507563171e+001dB,1.49948466955854e+002°)
3.16227766016837e+002	(6.06424503589517e+001dB,1.47007531420654e+002°)
3.54813389233575e+002	(6.03220485621328e+001dB,1.43924934027593e+002°)
3.98107170553496e+002	(5.99496396690566e+001dB,1.40730718487206e+002°)
4.46683592150962e+002	(5.95220961145415e+001dB,1.37461314690472e+002°)
5.01187233627271e+002	(5.90375592803531e+001dB,1.34157738364630e+002°)
5.62341325190348e+002	(5.84956244079479e+001dB,1.30863128476656e+002°)
6.30957344480192e+002	(5.78973820478307e+001dB,1.27619959187841e+002°)
7.07945784384136e+002	(5.72453072970012e+001dB,1.24467351868516e+002°)
7.94328234724279e+002	(5.65430199329740e+001dB,1.21438884937252e+002°)
8.91250938133743e+002	(5.57949624765151e+001dB,1.18561166899096e+002°)
9.99999999999997e+002	(5.50060521878213e+001dB,1.15853254638242e+002°)
1.12201845430196e+003	(5.41813568175029e+001dB,1.13326830214268e+002°)
1.25892541179416e+003	(5.33258279486374e+001dB,1.10986940891835e+002°)
1.41253754462275e+003	(5.24441071698169e+001dB,1.08833071199809e+002°)
1.58489319246111e+003	(5.15404047320113e+001dB,1.06860337489787e+002°)
1.77827941003892e+003	(5.06184403654967e+001dB,1.05060648274318e+002°)
1.99526231496887e+003	(4.96814315373733e+001dB,1.03423733405062e+002°)
2.23872113856833e+003	(4.87321141587201e+001dB,1.01937996609287e+002°)
2.51188643150957e+003	(4.77727828327553e+001dB,1.00591182838407e+002°)
2.81838293126444e+003	(4.68053407272587e+001dB,9.93708743147737e+001°)
3.16227766016837e+003	(4.58313521354688e+001dB,9.82648401115873e+001°)
3.54813389233574e+003	(4.48520933034180e+001dB,9.72612672854989e+001°)
3.98107170553496e+003	(4.38685990075115e+001dB,9.63489002297163e+001°)
4.46683592150961e+003	(4.28817036971013e+001dB,9.55171113671390e+001°)
5.01187233627270e+003	(4.18920768788838e+001dB,9.47559220450601e+001°)
5.62341325190347e+003	(4.09002529335525e+001dB,9.40559883570214e+001°)
6.30957344480190e+003	(3.99066558270495e+001dB,9.34085629960064e+001°)
7.07945784384135e+003	(3.89116192927266e+001dB,9.28054412651177e+001°)
7.94328234724278e+003	(3.79154030773676e+001dB,9.22388970246733e+001°)
8.91250938133741e+003	(3.69182058046846e+001dB,9.17016125614742e+001°)
9.99999999999995e+003	(3.59201749412673e+001dB,9.11866050299140e+001°)
1.12201845430196e+004	(3.49214142683203e+001dB,9.06871511415386e+001°)
1.25892541179416e+004	(3.39219891770793e+001dB,9.01967110886954e+001°)
1.41253754462275e+004	(3.29219300211289e+001dB,8.97088522146288e+001°)
1.58489319246111e+004	(3.19212336766318e+001dB,8.92171726390746e+001°)
1.77827941003891e+004	(3.09198633816367e+001dB,8.87152248827214e+001°)
1.99526231496887e+004	(2.99177468471093e+001dB,8.81964394875956e+001°)
2.23872113856833e+004	(2.89147725536660e+001dB,8.76540486982906e+001°)
2.51188643150957e+004	(2.79107840677611e+001dB,8.70810104585977e+001°)
2.81838293126444e+004	(2.69055721283692e+001dB,8.64699333103314e+001°)
3.16227766016836e+004	(2.58988641701973e+001dB,8.58130032910724e+001°)
3.54813389233573e+004	(2.48903108642646e+001dB,8.51019146659864e+001°)
3.98107170553495e+004	(2.38794691766113e+001dB,8.43278073633590e+001°)
4.46683592150960e+004	(2.28657813812629e+001dB,8.34812153978448e+001°)
5.01187233627269e+004	(2.18485494323302e+001dB,8.25520324553425e+001°)
5.62341325190346e+004	(2.08269041313771e+001dB,8.15295032742695e+001°)
6.30957344480189e+004	(1.97997686645314e+001dB,8.04022525587568e+001°)
7.07945784384133e+004	(1.87658163939971e+001dB,7.91583668929578e+001°)
7.94328234724276e+004	(1.77234233589053e+001dB,7.77855493248494e+001°)
8.91250938133740e+004	(1.66706168812936e+001dB,7.62713704925309e+001°)
9.99999999999993e+004	(1.56050231050017e+001dB,7.46036434384981e+001°)
1.12201845430196e+005	(1.45238183163503e+001dB,7.27709499633802e+001°)
1.25892541179416e+005	(1.34236915150808e+001dB,7.07633419977079e+001°)
1.41253754462274e+005	(1.23008287339898e+001dB,6.85732286496159e+001°)
1.58489319246110e+005	(1.11509325129529e+001dB,6.61964346081050e+001°)
1.77827941003891e+005	(9.96929169819346e+000dB,6.36333757795947e+001°)
1.99526231496887e+005	(8.75091582906964e+000dB,6.08902442969094e+001°)
2.23872113856832e+005	(7.49074301639877e+000dB,5.79800351016570e+001°)
2.51188643150956e+005	(6.18391912367773e+000dB,5.49231972882792e+001°)
2.81838293126443e+005	(4.82612961754575e+000dB,5.17476806450925e+001°)
3.16227766016835e+005	(3.41394683864554e+000dB,4.84881968771014e+001°)
3.54813389233573e+005	(1.94514075121694e+000dB,4.51846367995390e+001°)
3.98107170553494e+005	(4.18897607925666e-001dB,4.18797607310808e+001°)
4.46683592150960e+005	(-1.16409702573386e+000dB,3.86164581981528e+001°)
5.01187233627268e+005	(-2.80172831148993e+000dB,3.54349889548771e+001°)
5.62341325190344e+005	(-4.49066051060375e+000dB,3.23706225296723e+001°)
6.30957344480188e+005	(-6.22664190675967e+000dB,2.94519858107480e+001°)
7.07945784384132e+005	(-8.00485110875020e+000dB,2.67002521570756e+001°)
7.94328234724275e+005	(-9.82023194672472e+000dB,2.41291269160886e+001°)
8.91250938133738e+005	(-1.16677781858474e+001dB,2.17454565219548e+001°)
9.99999999999991e+005	(-1.35427478320694e+001dB,1.95502331167856e+001°)
1.12201845430195e+006	(-1.54408036078592e+001dB,1.75397749720491e+001°)
1.25892541179416e+006	(-1.73580877789152e+001dB,1.57069099524703e+001°)
1.41253754462274e+006	(-1.92912453301354e+001dB,1.40420490797963e+001°)
1.58489319246110e+006	(-2.12374107119588e+001dB,1.25340919591885e+001°)
1.77827941003891e+006	(-2.31941717765360e+001dB,1.11711469497216e+001°)
1.99526231496886e+006	(-2.51595216660522e+001dB,9.94107514829217e+000°)
2.23872113856832e+006	(-2.71318063682919e+001dB,8.83188098753031e+000°)
2.51188643150956e+006	(-2.91096729873132e+001dB,7.83197721264756e+000°)
2.81838293126443e+006	(-3.10920217016093e+001dB,6.93035162786644e+000°)
3.16227766016835e+006	(-3.30779629009833e+001dB,6.11665988208902e+000°)
3.54813389233572e+006	(-3.50667800130052e+001dB,5.38126440009539e+000°)
3.98107170553494e+006	(-3.70578979299764e+001dB,4.71523534861889e+000°)
4.46683592150959e+006	(-3.90508566156301e+001dB,4.11032574916704e+000°)
5.01187233627268e+006	(-4.10452893168801e+001dB,3.55892969779408e+000°)
5.62341325190344e+006	(-4.30409047629357e+001dB,3.05403014248628e+000°)
6.30957344480187e+006	(-4.50374727556459e+001dB,2.58914073582180e+000°)
