Circuit: * C:\Users\SnigdhaYS\Documents\LTSpice_LDO_Automation\Externally_Compensated\Miller_LDO_Sim_Benches_502\LDO_loopgain_IIIT.asc

Ignoring BSIM parameter XL
Ignoring BSIM parameter XW
Ignoring BSIM parameter XL
Ignoring BSIM parameter XW
Warning: Pd = 0 is less than W.
Warning: Ps = 0 is less than W.
Warning: Pd = 0 is less than W.
Warning: Ps = 0 is less than W.
Warning: Pd = 0 is less than W.
Warning: Ps = 0 is less than W.
Warning: Pd = 0 is less than W.
Warning: Ps = 0 is less than W.
Direct Newton iteration failed to find .op point.  (Use ".option noopiter" to skip.)
Starting Gmin stepping
Gmin = 10
Gmin = 1.07374
Gmin = 0.115292
Gmin = 0.0123794
Gmin = 0.00132923
Gmin = 0.000142725
Gmin = 1.5325e-005
Gmin = 1.6455e-006
Gmin = 1.76685e-007
Gmin = 1.89714e-008
Gmin = 2.03704e-009
Gmin = 2.18725e-010
Gmin = 2.34854e-011
Gmin = 2.52173e-012
Gmin = 2.70769e-013
Gmin = 0
Gmin stepping succeeded in finding the operating point.

Semiconductor Device Operating Points:
                        --- BSIM3 MOSFETS ---
Name:       mpass        m5          m4          m8          m7
Model:    pmos292p    pmos292p    pmos292p    nmos292p    nmos292p
Id:       -1.01e-02   -2.45e-05   -2.44e-05    5.00e-05    5.11e-05
Vgs:      -6.59e-01   -6.18e-01   -6.18e-01    6.24e-01    6.24e-01
Vds:      -4.00e-01   -6.59e-01   -6.18e-01    6.24e-01    1.00e+00
Vbs:       0.00e+00    0.00e+00    0.00e+00    0.00e+00    0.00e+00
Vth:      -4.85e-01   -4.43e-01   -4.43e-01    4.21e-01    4.20e-01
Vdsat:    -1.56e-01   -1.55e-01   -1.55e-01    1.56e-01    1.56e-01
Gm:        1.03e-01    2.58e-04    2.57e-04    4.83e-04    4.90e-04
Gds:       3.08e-03    2.68e-06    2.78e-06    3.32e-06    2.61e-06
Gmb        3.10e-02    7.82e-05    7.79e-05    1.34e-04    1.36e-04
Cbd:       0.00e+00    0.00e+00    0.00e+00    0.00e+00    0.00e+00
Cbs:       0.00e+00    0.00e+00    0.00e+00    0.00e+00    0.00e+00
Cgsov:     9.43e-13    5.91e-15    5.91e-15    8.58e-15    8.58e-15
Cgdov:     9.43e-13    5.91e-15    5.91e-15    8.58e-15    8.58e-15
Cgbov:     1.21e-19    3.01e-19    3.01e-19    9.66e-19    9.66e-19
dQgdVgb:   2.94e-12    2.78e-14    2.78e-14    8.47e-14    8.47e-14
dQgdVdb:  -9.43e-13   -5.90e-15   -5.90e-15   -8.48e-15   -8.46e-15
dQgdVsb:  -1.94e-12   -2.11e-14   -2.11e-14   -7.22e-14   -7.21e-14
dQddVgb:  -1.35e-12   -1.22e-14   -1.22e-14   -3.56e-14   -3.56e-14
dQddVdb:   9.44e-13    5.90e-15    5.90e-15    8.53e-15    8.51e-15
dQddVsb:   5.32e-13    8.32e-15    8.32e-15    3.56e-14    3.55e-14
dQbdVgb:  -2.37e-13   -3.35e-15   -3.35e-15   -1.35e-14   -1.35e-14
dQbdVdb:  -1.33e-15   -2.67e-18   -3.61e-18   -9.36e-18    1.03e-17
dQbdVsb:  -6.64e-14   -1.49e-15   -1.49e-15   -7.52e-15   -7.51e-15

Name:        m3          m2          m1
Model:    nmos292p    nmos292p    nmos292p
Id:        4.89e-05    2.44e-05    2.45e-05
Vgs:       6.24e-01    6.35e-01    6.36e-01
Vds:       3.64e-01    4.18e-01    3.77e-01
Vbs:       0.00e+00    0.00e+00    0.00e+00
Vth:       4.21e-01    4.52e-01    4.52e-01
Vdsat:     1.55e-01    1.40e-01    1.41e-01
Gm:        4.72e-04    2.55e-04    2.54e-04
Gds:       6.38e-06    3.98e-06    4.65e-06
Gmb        1.31e-04    6.94e-05    6.93e-05
Cbd:       0.00e+00    0.00e+00    0.00e+00
Cbs:       0.00e+00    0.00e+00    0.00e+00
Cgsov:     8.58e-15    2.60e-15    2.60e-15
Cgdov:     8.58e-15    2.60e-15    2.60e-15
Cgbov:     9.66e-19    5.06e-19    5.06e-19
dQgdVgb:   8.49e-14    1.60e-14    1.60e-14
dQgdVdb:  -8.63e-15   -2.58e-15   -2.58e-15
dQgdVsb:  -7.22e-14   -1.28e-14   -1.28e-14
dQddVgb:  -3.58e-14   -6.89e-15   -6.89e-15
dQddVdb:   8.67e-15    2.59e-15    2.60e-15
dQddVsb:   3.56e-14    5.61e-15    5.61e-15
dQbdVgb:  -1.33e-14   -2.24e-15   -2.24e-15
dQbdVdb:  -1.43e-16   -9.34e-18   -1.50e-17
dQbdVsb:  -7.58e-15   -1.06e-15   -1.06e-15



Date: Thu Nov 27 03:26:12 2025
Total elapsed time: 0.111 seconds.

tnom = 27
temp = 27
method = trap
totiter = 445
traniter = 0
tranpoints = 0
accept = 0
rejected = 0
matrix size = 12
fillins = 9
solver = Normal
Matrix Compiler1:      64 opcodes
Matrix Compiler2:      90 opcodes  0.2/[0.2]/0.4

