Circuit: * C:\Users\SnigdhaYS\Documents\LTSpice_LDO_Automation\Externally_Compensated\Miller_LDO_Sim_Benches_502\LDO_PSRR_IIIT.asc

Ignoring BSIM parameter XL
Ignoring BSIM parameter XW
Ignoring BSIM parameter XL
Ignoring BSIM parameter XW
Warning: Pd = 0 is less than W.
Warning: Ps = 0 is less than W.
Warning: Pd = 0 is less than W.
Warning: Ps = 0 is less than W.
Warning: Pd = 0 is less than W.
Warning: Ps = 0 is less than W.
Warning: Pd = 0 is less than W.
Warning: Ps = 0 is less than W.
Direct Newton iteration failed to find .op point.  (Use ".option noopiter" to skip.)
Starting Gmin stepping
Gmin = 10
Gmin = 1.07374
Gmin = 0.115292
Gmin = 0.0123794
Gmin = 0.00132923
Gmin = 0.000142725
Gmin = 1.5325e-005
Gmin = 1.6455e-006
Gmin = 1.76685e-007
Gmin = 1.89714e-008
Gmin = 2.03704e-009
Gmin = 2.18725e-010
Gmin = 2.34854e-011
Gmin = 2.52173e-012
Gmin = 2.70769e-013
Gmin = 0
Gmin stepping succeeded in finding the operating point.

Semiconductor Device Operating Points:
                        --- BSIM3 MOSFETS ---
Name:       mpass        m5          m4          m8          m7
Model:    pmos292p    pmos292p    pmos292p    nmos292p    nmos292p
Id:       -1.01e-02   -2.45e-05   -2.44e-05    5.00e-05    5.11e-05
Vgs:      -6.65e-01   -6.14e-01   -6.14e-01    6.24e-01    6.24e-01
Vds:      -4.01e-01   -6.65e-01   -6.14e-01    6.24e-01    9.99e-01
Vbs:       0.00e+00    0.00e+00    0.00e+00    0.00e+00    0.00e+00
Vth:      -4.85e-01   -4.30e-01   -4.30e-01    4.21e-01    4.20e-01
Vdsat:    -1.60e-01   -1.60e-01   -1.60e-01    1.56e-01    1.56e-01
Gm:        1.00e-01    2.49e-04    2.48e-04    4.83e-04    4.90e-04
Gds:       3.10e-03    2.16e-06    2.24e-06    3.32e-06    2.61e-06
Gmb        3.01e-02    7.72e-05    7.69e-05    1.34e-04    1.36e-04
Cbd:       0.00e+00    0.00e+00    0.00e+00    0.00e+00    0.00e+00
Cbs:       0.00e+00    0.00e+00    0.00e+00    0.00e+00    0.00e+00
Cgsov:     8.86e-13    8.94e-15    8.94e-15    8.58e-15    8.58e-15
Cgdov:     8.86e-13    8.94e-15    8.94e-15    8.58e-15    8.58e-15
Cgbov:     1.21e-19    4.81e-19    4.81e-19    9.66e-19    9.66e-19
dQgdVgb:   2.76e-12    5.62e-14    5.62e-14    8.47e-14    8.47e-14
dQgdVdb:  -8.86e-13   -8.92e-15   -8.92e-15   -8.48e-15   -8.46e-15
dQgdVsb:  -1.83e-12   -4.52e-14   -4.52e-14   -7.22e-14   -7.21e-14
dQddVgb:  -1.27e-12   -2.43e-14   -2.43e-14   -3.56e-14   -3.56e-14
dQddVdb:   8.87e-13    8.93e-15    8.94e-15    8.53e-15    8.51e-15
dQddVsb:   5.01e-13    2.02e-14    2.02e-14    3.56e-14    3.55e-14
dQbdVgb:  -2.23e-13   -7.66e-15   -7.65e-15   -1.35e-14   -1.35e-14
dQbdVdb:  -1.31e-15   -6.19e-18   -9.16e-18   -9.36e-18    1.03e-17
dQbdVsb:  -6.23e-14   -4.20e-15   -4.20e-15   -7.52e-15   -7.51e-15

Name:        m3          m2          m1
Model:    nmos292p    nmos292p    nmos292p
Id:        4.89e-05    2.44e-05    2.45e-05
Vgs:       6.24e-01    6.28e-01    6.30e-01
Vds:       3.70e-01    4.16e-01    3.65e-01
Vbs:       0.00e+00    0.00e+00    0.00e+00
Vth:       4.21e-01    4.37e-01    4.37e-01
Vdsat:     1.55e-01    1.47e-01    1.48e-01
Gm:        4.73e-04    2.47e-04    2.46e-04
Gds:       6.19e-06    3.26e-06    4.02e-06
Gmb        1.31e-04    6.82e-05    6.81e-05
Cbd:       0.00e+00    0.00e+00    0.00e+00
Cbs:       0.00e+00    0.00e+00    0.00e+00
Cgsov:     8.58e-15    3.31e-15    3.31e-15
Cgdov:     8.58e-15    3.31e-15    3.31e-15
Cgbov:     9.66e-19    6.86e-19    6.86e-19
dQgdVgb:   8.49e-14    2.52e-14    2.53e-14
dQgdVdb:  -8.61e-15   -3.29e-15   -3.30e-15
dQgdVsb:  -7.22e-14   -2.08e-14   -2.08e-14
dQddVgb:  -3.58e-14   -1.07e-14   -1.07e-14
dQddVdb:   8.66e-15    3.31e-15    3.32e-15
dQddVsb:   3.56e-14    9.73e-15    9.73e-15
dQbdVgb:  -1.34e-14   -3.78e-15   -3.76e-15
dQbdVdb:  -1.33e-16   -1.92e-17   -3.38e-17
dQbdVsb:  -7.58e-15   -1.95e-15   -1.95e-15



Date: Wed Nov 26 21:26:47 2025
Total elapsed time: 0.063 seconds.

tnom = 27
temp = 27
method = trap
totiter = 395
traniter = 0
tranpoints = 0
accept = 0
rejected = 0
matrix size = 9
fillins = 0
solver = Normal
Matrix Compiler1:      39 opcodes
Matrix Compiler2:      64 opcodes  0.1/[0.1]/0.3

