Vin,Vout,PSRR,Iload|max,Iload|min,Cload,Iquiescent,Transient Duration,LDO Type,Wpass,Wdiff,Wload,gm_id,fp1_sim,phase_margin,loopgain,Iq_sim,Power,l1,l2,STATUS,RETRIES_USED
2.8793047006570376,1.0793047006570378,47.81664296579267,25.206699216648275,5.133733193917664,0.0016927226470721,70.36885228987322,1.0,Internal,209.52491126340192,0.1537946508506498,0.29246248001414504,1.963718820861678,4466.8359215096125,47.743939721449294,59.794931538147615,35.2,101.35152546312773,0.18,0.18,OK,0
2.773396516381414,0.973396516381414,32.744542932337424,47.19476572774664,4.167367936585992,0.0050153433081145,70.44942078981089,1.0,Internal,,,,,,,,,,,,FAILED,1
1.3762777482966793,0.9762777482966792,66.41015008464218,77.20331567130152,1.1950652752525617,4.2342710842802616,49.423966831484535,0.5,External,,,,,,,,,,,,FAILED,1
2.863942908307613,1.0639429083076128,63.67576401779749,76.54629048206904,3.909809565144482,4.361120642888082,27.04990898506625,0.5,External,,,,,,,,,,,,FAILED,1
2.8048843196423165,1.0048843196423167,69.89549909147811,96.8230972627386,2.762956164337054,1.375975233060751,85.4559674282971,2.0,External,,,,,,,,,,,,FAILED,1
2.902569251268611,1.1025692512686112,63.78834267742649,31.96080458894717,3.775452647502929,1.5984862052899536,78.33150816912955,2.0,External,1114.9962944562546,0.5078258665073185,1.3663507923382094,5.374149659863946,177.82794100389194,68.41278650231192,64.71872298116392,38.4,111.45865924871465,0.18,0.18,OK,0
1.3232234655954254,0.9232234655954252,53.68202646721914,15.036782817648415,4.251403886147031,2.935906734163997,65.64565189123479,1.0,External,1021.0139210635431,2.9165611505264017,8.610526884967054,7.428571428571429,281.83829312644474,73.18895177576685,55.72307108870963,30.9,40.887605086898645,0.72,0.54,OK,0
2.910983168319736,1.1109831683197355,46.183896073134825,35.27742604641935,5.4750627551799615,0.0095527631236256,36.994464081825726,0.5,Internal,198.7393421099754,0.05222849815965556,0.1042062343729215,1.1111111111111112,398.10717055349625,53.63988772976878,61.92512071329466,18.8,54.72648356441103,0.18,0.18,OK,0
1.229596811439032,1.029596811439032,50.66847144871007,60.080320164130725,1.6660141881980604,3.589879005368078,25.83012550767959,1.0,External,,,,,,,,,,,,FAILED,1
2.7760138196488,0.9760138196488004,53.135208573032784,69.9257944399407,3.374738479634933,3.798654545975424,37.85163188015641,2.0,External,581.2421431749691,0.08272663713706377,0.15731650825639698,1.963718820861678,141.25375446227517,80.72659518631188,57.09768646025406,18.3,50.80105289957304,0.18,0.18,OK,0
1.4216415028991256,1.0216415028991257,50.04646812263861,98.47343931352822,4.624550144509918,0.371681654948823,84.97308375469629,2.0,External,406063.3762391079,28.13803857800422,175.19677143103638,22.0,281.83829312644474,50.653844116251236,63.34326475383705,42.1,59.85110727205319,0.18,0.18,OK,0
1.1776884815074926,0.9776884815074924,67.91631463120389,14.830131046425542,3.626250809598609,4.544229040347394,25.187449455840657,1.0,External,,,,,,,,,,,,FAILED,1
1.3837145325323073,1.1837145325323073,56.03173739747103,22.88873986712511,2.2149401849003976,0.5557853053871075,22.94811697089968,0.5,External,,,,,,,,,,,,FAILED,1
1.2268830631224672,1.0268830631224672,32.14444788416975,24.056690416219976,5.071300832859132,0.00760278556328,85.60169487286286,0.5,Internal,3553.7444350079536,1.9841868236383358,6.322701533719226,10.489795918367347,2238.7211385683313,70.10228470447005,49.632247087771056,42.2,51.77446526376812,0.18,0.18,OK,0
1.206219368706528,1.0062193687065282,37.31798597235616,15.322707596947192,2.9647280063036106,0.0014922385711864,11.59030403158905,0.5,Internal,3509.55523786827,0.4020749802732414,1.3273376120109899,12.938775510204081,11220.18454301958,48.95538250781287,48.876358459235185,5.83,7.032258919559058,0.18,0.18,OK,0
1.1516592438270898,0.95165924382709,47.81947769381408,30.62737663333592,8.491519375317171,0.009924619086651,24.725458372444866,1.0,Internal,11900.904416118983,2.888358745380757,4.803795641036348,15.63265306122449,1995.2623149688723,48.84946077830888,58.434427644402476,12.2,14.050242774690496,0.36,0.18,OK,0
2.9939866342074835,1.1939866342074834,34.52554668287614,10.931307345350572,8.983384700022658,0.0034752229523901,30.12513578133983,2.0,Internal,,,,,,,,,,,,FAILED,1
1.3451321297500285,1.1451321297500283,58.60285464193653,46.587680223872205,2.24148355643248,3.834435140206591,94.25589077498546,1.0,External,,,,,,,,,,,,FAILED,1
1.15243438546248,0.9524343854624802,54.78664573094717,64.29077490433717,2.8963050564314305,4.39085712517192,34.42877778484479,0.5,External,,,,,,,,,,,,FAILED,1
1.1487683617794249,0.9487683617794246,55.14304702218192,73.34187477960792,1.112486025111695,1.939074594287768,66.4078013688098,0.5,External,,,,,,,,,,,,FAILED,1
2.9469010723340805,1.1469010723340805,63.04562225636893,43.49372854465632,3.3841743819105887,0.6265077078816498,11.52215199294466,1.0,External,222158.2854010989,4.093929745012628,29.426558914755688,22.0,35.48133892335751,48.929050100483884,70.3067801480242,5.88,17.327778305324394,0.18,0.18,OK,0
1.380889002630155,0.9808890026301548,30.14085829248284,41.247322071451,1.691161158580606,0.0047233542871902,71.09986034699065,0.5,Internal,1734.95389828332,0.5312128035114689,1.4953089519693963,5.346938775510204,794.3282347242791,69.0114422547023,55.5844903883271,35.0,48.33111509205543,0.18,0.18,OK,0
1.2508626560196754,1.0508626560196754,32.71491706199802,48.98471828918056,9.67917910632388,0.0024735606209125,36.94808123227959,1.0,Internal,7553.647550209741,0.8913559447388842,2.848773995570814,10.73469387755102,14125.375446227474,55.16981467991142,49.092729640355,18.4,23.015872870762024,0.18,0.18,OK,0
2.781515279669454,0.981515279669454,34.075109716998874,16.729774467482144,1.8327569893004725,0.0045948905112776,47.7036301543677,0.5,Internal,,,,,,,,,,,,FAILED,1
2.749961554049181,0.949961554049181,66.41698018526257,31.740343732837346,1.2802747828847578,0.3774652311500344,20.834033455498044,2.0,External,,,,,,,,,,,,FAILED,1
1.1731124635713028,0.9731124635713028,46.858909649123945,25.064897893691352,7.377251911910427,0.0075868546355785,25.65673353130048,0.5,Internal,9739.487570343455,2.997147699216054,4.984728810457452,15.63265306122449,2818.382931264443,45.64627312910769,58.2796546708628,12.700000000000001,14.898528287355548,0.36,0.18,OK,0
2.891190646961407,1.0911906469614072,32.55623688720765,31.200685196116385,3.698868415996585,0.0013096288760811,67.14367571059694,0.5,Internal,,,,,,,,,,,,FAILED,1
1.5389172167859124,1.1389172167859123,47.82043365934423,41.61239660153102,7.434575411965994,0.0032391735737783,91.919498946998,1.0,Internal,3746.6957807448657,1.3496585547608941,4.138122614887177,8.816326530612244,3548.1338923357403,60.85104206803806,58.91703116566566,45.800000000000004,70.48240852879479,0.18,0.18,OK,0
1.4880311558251664,1.0880311558251663,62.87439612649892,31.328713427969184,2.79870790873488,1.7917963050795604,25.54810806215889,1.0,External,,,,,,,,,,,,FAILED,1
2.964592666542182,1.1645926665421822,49.19491442923939,43.32116300077568,8.774106606685029,0.004660963737148,78.61250923364555,2.0,Internal,360.0972406402936,0.17181157595520286,0.32672423469262013,1.963718820861678,2238.7211385683313,50.537559675142084,59.111272517756895,39.7,117.69432886172463,0.18,0.18,OK,0
1.58364845816785,1.18364845816785,58.70585448375268,54.889619940604696,1.79851523063967,3.777666402393314,77.1777847008864,0.5,External,,,,,,,,,,,,FAILED,1
1.3633935147498977,1.1633935147498975,54.66037928793669,82.24849042576392,3.353724961813809,1.1327391872065409,31.304842826844965,0.5,External,,,,,,,,,,,,FAILED,1
1.2734655143669869,1.073465514366987,55.16600858255185,87.36610265650704,3.67707316700334,2.295618887687075,53.911017575137166,1.0,External,,,,,,,,,,,,FAILED,1
1.2880407890194532,1.0880407890194532,69.91290353348698,50.61743394987935,2.9435424247584527,2.8726737583122923,92.5080402806872,1.0,External,,,,,,,,,,,,FAILED,1
1.4353390209393524,1.0353390209393525,41.724709975615234,27.1565171915562,2.7308419550591547,0.005175426371094,32.12367283203172,1.0,Internal,1586.6806777798188,0.3209161625084776,0.9384489664557094,6.73469387755102,794.3282347242791,71.10370107555939,55.80673012843961,16.099999999999998,23.10895823712357,0.18,0.18,OK,0
1.400622044048904,1.000622044048904,39.73656423882474,47.070187094952885,6.733772999692439,0.0090880093139739,51.08579698073797,1.0,Internal,2346.7901245913463,0.44357639869385396,1.273498696950466,6.040816326530612,999.9999999999968,72.49671004377053,54.721913135190405,25.299999999999997,35.435737714437266,0.18,0.18,OK,0
1.2868862132550145,1.0868862132550146,53.63262843757644,33.72759532887261,1.203210358755769,2.3946728981362875,86.78153547192129,1.0,External,,,,,,,,,,,,FAILED,1
2.979780662251093,1.1797806622510931,60.34544339508621,13.000236061824342,4.938303585504452,3.3653957930051037,35.68636616170802,0.5,External,108.06148333209711,0.11041883480465134,0.321316626001041,1.963718820861678,31.622776601683764,88.28946556896476,60.45683927760212,16.799999999999997,50.060315125818356,0.36,0.36,OK,0
2.7328447098206983,0.9328447098206982,56.128846731004856,96.41022646101474,4.857952900095417,1.5182382033471076,53.16625870700123,0.5,External,1308.702659140998,0.16816082203185073,0.360847737322587,2.816326530612245,446.68359215096194,46.910784644615845,59.472355208894385,25.2,68.8676866874816,0.18,0.18,OK,0
1.101460522296651,0.901460522296651,67.84938187904024,12.469537544027014,2.3236590631207807,1.3166086501911454,98.92125658588796,2.0,External,,,,,,,,,,,,FAILED,1
2.91978380977212,1.1197838097721196,46.01072210253496,43.05389412309896,6.717384886231728,0.0013740386344503,28.61179084397297,0.5,Internal,242.5489484986308,0.04039390494030759,0.08059386874537242,1.1111111111111112,3548.1338923357403,48.55856548493378,63.102970101507864,14.600000000000001,42.62884362267295,0.18,0.18,OK,0
1.2098339353786254,1.0098339353786254,69.31219662761768,37.44918676799895,2.3540275177018914,0.1347498825944178,71.22256194973366,2.0,External,,,,,,,,,,,,FAILED,1
2.743982490108001,0.943982490108001,43.00226446838427,38.39101033458921,1.2836173877399042,0.0020944473341325,66.97766138466145,1.0,Internal,,,,,,,,,,,,FAILED,1
1.2871231178262783,1.0871231178262786,66.21870385345221,43.03387954978391,4.788611744025419,2.091667317965154,79.4652431707099,0.5,External,,,,,,,,,,,,FAILED,1
1.5723283730950537,1.1723283730950536,68.72986662620451,83.4258099444395,4.165242857250668,1.08446556445906,82.46072878791985,1.0,External,,,,,,,,,,,,FAILED,1
2.7867451003362453,0.9867451003362452,53.657861061373374,58.90710476220681,2.5080308478349784,4.828150147358947,34.61878261017432,1.0,External,489.6518101002865,0.07566108315187785,0.1438803488727524,1.963718820861678,99.99999999999984,84.16123972144138,57.24922512164105,16.799999999999997,46.817317685648916,0.18,0.18,OK,0
2.994858035356626,1.194858035356626,60.052602312425066,29.48895637937917,3.805454241241766,0.1704274637111104,14.456136673206418,0.5,External,103707.13038911499,4.154080073749691,25.41976107264749,21.573696145124718,89.12509381337442,47.497522285763594,70.80269410710818,7.38,22.1020523009319,0.18,0.18,OK,0
1.202502372145536,1.0025023721455362,68.06381381445571,72.80209457428718,4.272582324511205,3.3699260633716976,21.30238924391446,0.5,External,,,,,,,,,,,,FAILED,1
1.163057590615654,0.963057590615654,32.987632724528645,34.17156293350199,2.551477258946496,0.0088515510701933,65.18046151623173,0.5,Internal,5269.397307047436,1.5724494998284024,5.0255493003659,10.73469387755102,707.9457843841359,74.03797626974895,52.48667769116558,32.199999999999996,37.450454417824055,0.18,0.18,OK,0
1.588701417244362,1.188701417244362,51.4579690374331,64.54912591943139,2.012795628051241,4.038097914198782,83.60398662095716,0.5,External,,,,,,,,,,,,FAILED,1
1.450560859307351,1.050560859307351,47.32902126498083,28.439698030138,7.02339216259292,0.0083351378500853,33.46076419665342,0.5,Internal,2390.00064231563,0.46190846596482144,1.4059792026910185,8.46938775510204,1584.893192461108,61.68674075712136,56.76091569910085,16.7,24.22436635043276,0.18,0.18,OK,0
1.100188254988537,0.9001882549885368,51.98475329839362,13.61848386104393,2.050781908007741,4.386353706514568,21.601232656614904,1.0,External,4543.266628267863,5.786484111883616,13.944435604919928,14.89795918367347,354.8133892335746,50.27682731219949,52.216826469347744,10.6,11.66199550287849,0.9,0.54,OK,0
1.130349685883931,0.930349685883931,69.21658834160377,90.77246222605426,3.7870192597416175,0.57353886240787,34.67476339050701,0.5,External,,,,,,,,,,,,FAILED,1
1.3621034103682246,1.1621034103682246,37.70212245979841,23.804779847792435,1.400581353485542,0.0036022304657688,50.6156659459876,1.0,Internal,5211.544947534708,1.68490985129563,5.540606126449405,12.693877551020408,1122.0184543019598,67.23029213582487,54.278694502070515,25.599999999999998,34.869847305426546,0.18,0.18,OK,0
1.2359802382265064,1.0359802382265064,32.11593040545598,27.776293371258998,8.331625504233255,0.0094254673739589,56.2166080067593,0.5,Internal,4103.218118761086,1.303061265811625,4.152263973192779,10.489795918367347,3981.071705534956,68.24825763062749,47.50619727193773,27.8,34.36025062269688,0.18,0.18,OK,0
1.4607066911368087,1.0607066911368088,46.96406257105791,27.184221970614008,5.247122595080707,0.0054128124046884,86.21065016827708,2.0,Internal,2284.4935941924587,1.1900932368138049,3.6224630278824117,8.46938775510204,1584.893192461108,65.85295613012693,58.34151775585617,42.6,62.22610504242805,0.18,0.18,OK,0
1.2210559977320632,1.0210559977320632,48.6908049124372,37.67275967281135,9.259953872449955,0.009175124892187,64.41166992324179,1.0,Internal,17172.375810491434,8.684390779599685,14.680387262703185,16.367346938775512,2511.8864315095707,49.45485991693857,59.48354508850761,32.0,39.07379192742602,0.36,0.18,OK,0
1.46723229014908,1.06723229014908,34.77690320807214,47.717652729019264,3.74589718137574,0.0025197336043033,51.460551248949386,2.0,Internal,2189.0647372616518,0.41509306300247206,1.1803857865646157,5.6938775510204085,2511.8864315095707,68.62373804042782,55.16270932904659,25.8,37.85459308584626,0.18,0.18,OK,0
2.7105477750813582,0.9105477750813584,60.88217247878937,57.41267534189686,2.426235684707555,2.291783505637744,96.89661264112898,0.5,External,,,,,,,,,,,,FAILED,1
2.773040113220028,0.973040113220028,45.19040297433888,14.269468288481294,7.383665144266913,0.0011903484101447,47.703968018555145,1.0,Internal,,,,,,,,,,,,FAILED,1
1.2016198867323291,1.0016198867323294,68.90614080503273,92.12229404963226,3.3337048605763644,2.366790485959194,83.64704584954437,1.0,External,,,,,,,,,,,,FAILED,1
2.75506923426508,0.9550692342650798,44.453671489489736,19.36513840037848,9.153205041111828,0.0021397341296653,26.06678103453388,1.0,Internal,,,,,,,,,,,,FAILED,1
2.737107255184128,0.9371072551841282,49.52979322295774,21.931669819868983,9.30957418912542,0.0059034220810608,34.27682192863904,1.0,Internal,,,,,,,,,,,,FAILED,1
1.536016904420062,1.136016904420062,56.0013416581088,19.37010702395421,2.138698955385854,1.942258987452782,78.06790872822647,1.0,External,1221.0696359905687,5.589619143077699,16.43733287400499,7.081632653061225,562.3413251903476,53.744347559990594,56.48648647330525,38.300000000000004,58.82944743928838,1.26,0.9,OK,0
1.3232450879666449,0.9232450879666448,62.41113694046917,65.64325618741942,3.797538963949469,0.6488573940342078,86.45179869356998,2.0,External,,,,,,,,,,,,FAILED,1
1.4413965382315204,1.0413965382315205,52.16800745433245,88.21363710768946,4.132640116111611,0.9237786782288532,56.103450748863445,1.0,External,,,,,,,,,,,,FAILED,1
2.887527465805958,1.0875274658059586,33.49767872389725,35.26899545870555,2.560564595855074,0.0075230827746254,55.48183014140435,2.0,Internal,,,,,,,,,,,,FAILED,1
1.3608619527742705,0.9608619527742704,64.46660607987926,17.92534227100608,4.344315603181124,0.8584515707459487,37.1058028297623,1.0,External,,,,,,,,,,,,FAILED,1
1.4116921295719145,1.0116921295719143,59.00128340831516,24.448348125249897,3.2660726623513203,3.2827604971579367,37.23608646358795,2.0,External,,,,,,,,,,,,FAILED,1
2.716352783224116,0.9163527832241158,53.19079913376847,89.12814714063498,1.0400416422365455,4.423805013574564,61.45109905147647,1.0,External,1773.5833108304932,0.2580769744824231,0.611415401342953,3.668934240362812,158.48931924611105,62.69250717752137,61.42153257994353,29.0,78.77423071349936,0.18,0.18,OK,0
1.3169171376380988,1.1169171376380989,34.20235551880429,10.234927720996756,9.73105197776589,0.0011978363332866,82.24276648024194,1.0,Internal,1721.1069237285271,2.1486419231060587,6.914977744559379,11.224489795918368,125892.54117941584,48.94336575572841,39.8680650729727,40.5,53.335144074343,0.18,0.18,OK,0
1.2916017908361217,1.0916017908361215,68.41256273421551,13.895124866694776,4.820252748504946,3.093539298669042,10.114126922394124,0.5,External,,,,,,,,,,,,FAILED,1
1.4565135404100755,1.0565135404100754,31.808379555833216,47.65354552641473,3.327015372762213,0.0040349124136565,46.203437231518784,1.0,Internal,2186.1237959411933,0.3726879292235553,1.0597997742907697,5.6938775510204085,1995.2623149688723,64.94175263492299,55.10127854859689,23.200000000000003,33.79111413751376,0.18,0.18,OK,0
2.7369955473225875,0.9369955473225876,48.63318499518038,9.717608624269609,3.411484750961631,0.0056817514695149,60.916782346381126,1.0,Internal,,,,,,,,,,,,FAILED,1
2.9341718177462823,1.134171817746282,64.14456656670846,23.0862696982183,2.466887634375196,0.6184446217969197,66.53859373837395,1.0,External,459.39945976307655,0.46827261670935727,0.6620340664902419,3.668934240362812,281.83829312644474,60.11641901495881,64.24285691523094,31.8,93.30666380433178,0.36,0.18,OK,0
1.5957802505874752,1.1957802505874753,37.09862401936032,27.643062517310504,5.43952744604704,0.0010356394871092,55.10464583117413,2.0,Internal,1162.7285522153236,0.41170676363675246,1.158911843206529,5.346938775510204,7943.282347242779,73.06356408307876,51.87615891783832,27.7,44.20311294127306,0.18,0.18,OK,0
2.991623800642367,1.1916238006423672,42.88426031979236,34.28259729502101,8.801393371196403,0.0090457575171625,92.78133146014926,1.0,Internal,,,,,,,,,,,,FAILED,1
1.4632378005889302,1.0632378005889302,40.00581037356359,23.682005422578968,2.5228274650952662,0.0026877450062095,10.949647313431049,1.0,Internal,1086.4206433750192,0.16158291592855256,0.25115953372017774,5.6938775510204085,999.9999999999968,73.12861283449021,56.47317566585735,5.52,8.077072659250893,0.36,0.18,OK,0
2.8670516084070723,1.0670516084070722,33.479547990436075,20.186467057083732,1.1627298298511688,0.0046029688156968,59.48892290405894,2.0,Internal,,,,,,,,,,,,FAILED,1
2.8990471035386127,1.099047103538613,49.81497618786437,44.72704232053221,5.256915343283374,0.0056771652803533,27.151844186547446,1.0,Internal,300.37293431718507,0.0470398964758394,0.0911716792269578,1.5374149659863945,891.2509381337428,48.608451336443636,63.93584074170326,13.9,40.29675473918672,0.18,0.18,OK,0
1.5709083620478437,1.1709083620478435,67.2711360599662,37.39004115604793,4.59805106038524,4.710311541073275,70.37783983017152,2.0,External,,,,,,,,,,,,FAILED,1
1.435826301312622,1.035826301312622,41.81732534790229,34.37276556997509,3.30099600998633,0.0042810978476787,85.93124766984799,2.0,Internal,2008.3062414458886,0.8584549589321985,2.5103633380802948,6.73469387755102,999.9999999999968,72.19929293404472,57.31326934651345,42.4,60.87903517565517,0.18,0.18,OK,0
2.9411579658746465,1.141157965874647,31.248885499478483,22.277615400686987,4.999968619043488,0.0022745552048795,19.22466962702915,0.5,Internal,,,,,,,,,,,,FAILED,1
2.8356645300305154,1.0356645300305154,37.78869360155346,47.826608287574174,3.877487644058688,0.0088128834388035,89.31256135137008,1.0,Internal,,,,,,,,,,,,FAILED,1
1.5106470295590713,1.1106470295590711,56.23024598027972,79.37774335446937,2.7706193930417324,2.477807037478846,80.01184660736831,1.0,External,,,,,,,,,,,,FAILED,1
2.8329382035968744,1.0329382035968744,30.270272846123653,21.328961764779656,6.409820506566724,0.008637458967089,89.97779024528656,1.0,Internal,,,,,,,,,,,,FAILED,1
