Vin,Vout,PSRR,Iload|max,Iload|min,Cload,Iquiescent,Transient Duration,LDO Type,Wpass,Wdiff,Wload,gm_id,fp1_sim,phase_margin,loopgain,Iq_sim,Power,l1,l2,STATUS,RETRIES_USED
1.5355293142287123,1.1355293142287122,30.43826657550018,18.547073502544087,5.523681183671174,0.0015055846961269,54.19861564448486,2.0,Internal,780.1310693393619,0.4049374840180816,1.139857023094378,5.346938775510204,14125.375446227474,54.797694774486736,49.7771065369539,27.0,41.45929148417523,0.18,0.18,OK,0
1.5293322184226512,1.1293322184226513,50.2298494659623,43.83383981676754,4.696107481702931,0.6482150210907068,56.47819493967499,0.5,External,,,,,,,,,,,,FAILED,3
1.582759392256035,1.182759392256035,47.63381223687016,41.63565585160228,7.166208788870357,0.0019938867706999,36.02687016663549,2.0,Internal,3748.789996440726,0.5289843186557931,1.6218931552936557,8.816326530612244,6309.573444801905,49.158917003999946,58.20021159903138,18.2,28.806220939059838,0.18,0.18,OK,0
1.2660140563597242,1.0660140563597242,37.13771950342221,20.92051214313962,8.457000381154732,0.0081036356348771,37.70162485126711,2.0,Internal,4379.124690918827,1.2045619860952814,3.9458908831752297,12.448979591836736,6309.573444801905,58.43647303768275,48.6252802367754,18.7,23.67446285392684,0.18,0.18,OK,0
1.5359073199184443,1.1359073199184444,37.0884989758611,27.75353690398815,9.47008731280306,0.0088868748982808,19.231116632523083,0.5,Internal,1066.4526835711617,0.2355573122859502,0.8451809822416159,5.0,1584.893192461108,64.89681726476539,53.663507226687194,9.53,14.637196758822773,0.36,0.36,OK,0
2.866011356924932,1.0660113569249314,36.97780150083647,28.47197282051112,8.150370702836415,0.0089593889232067,41.03032780653823,2.0,Internal,,,,,,,,,,,,FAILED,3
1.4317631803749151,1.0317631803749152,35.91885777717313,25.663515517965283,4.699842479923958,0.0074973630476411,44.63232554989929,2.0,Internal,1177.3231423091343,0.36001496819973194,1.0237621133431105,5.6938775510204085,1258.925411794163,70.63845599216305,52.71949661239398,22.2,31.785142604323116,0.18,0.18,OK,0
1.1495853470428872,0.9495853470428872,64.3747923570706,74.57809966054602,3.059733399653038,0.8906777251713801,17.519890375962078,0.5,External,212724.11096852054,29.623687311221744,113.92384479415217,21.51020408163265,89.12509381337442,46.19991574711355,65.51202336201746,8.7,10.001392519273118,1.08,0.72,OK,0
1.3497244530895662,0.9497244530895662,47.63324964665425,10.467292598949443,6.711753308386425,0.0062392942682001,20.65735352583387,1.0,Internal,942.4537930810486,0.30331294474242065,0.9299731043819431,8.816326530612244,3981.071705534956,54.945609722855075,51.67329687419085,10.200000000000001,13.767189421513576,0.18,0.18,OK,0
2.793300748419804,0.993300748419804,31.154643184502344,22.59647911073294,3.107830338337007,0.0029759853090682,96.38765224421095,2.0,Internal,,,,,,,,,,,,FAILED,3
1.2244207480902414,1.0244207480902414,58.57888666860288,56.38597536461768,3.785719228144429,3.540515871290965,25.45245169349046,1.0,External,1763070.708009238,131.93683041996005,397.92228242603016,21.755102040816325,223.8721138568335,46.150144931234394,61.166676736315104,112.0,137.13512378610704,0.36,0.18,OK,2
1.4317286695752487,1.0317286695752486,60.2456951448697,15.857148149808047,4.059203889837109,3.426598852881419,79.5688049175028,2.0,External,1332.594819508055,7.922495525251066,23.130569605726635,8.46938775510204,251.18864315095746,59.01206002028287,60.86927540192218,38.800000000000004,55.55107237951965,1.26,0.9,OK,0
1.5329467907953056,1.1329467907953057,65.85516227145625,11.559361099886974,2.8970200839078144,2.847323645200855,66.55838109531284,1.0,External,,,,,,,,,,,,FAILED,3
1.564469036482227,1.164469036482227,44.46887324709824,29.104546970641035,8.52505932886524,0.0083924952661062,85.89935510090949,2.0,Internal,1976.230420006794,0.9803823069757847,2.916329856991486,7.428571428571429,1778.2794100389165,65.5314118848539,55.543623363153486,42.8,66.9592747614393,0.18,0.18,OK,0
1.2000885187510597,1.0000885187510598,40.63154793549987,27.97528079342021,8.385388819089279,0.0046411179076361,53.59099836623578,2.0,Internal,7691.674385044601,2.198871224310148,7.367298874431555,13.918367346938776,7943.282347242779,50.72093480501135,52.275950829576956,26.5,31.802345746903082,0.18,0.18,OK,0
1.2229217709328817,1.0229217709328815,66.07075318925206,90.66853271189171,1.8138909699903836,0.4281706989238305,88.96154078195548,2.0,External,440164.0225017987,322.43298155324067,789.2405572882716,20.53061224489796,794.3282347242791,45.306460986528776,63.437702904367235,130.0,158.97983022127463,1.08,0.54,OK,1
2.922924461889414,1.122924461889414,51.331294558284455,66.59021070794907,1.2964216902994683,1.939797749485852,82.3433090674102,2.0,External,553.5158677332564,0.1799654258356004,0.34222994405568435,1.963718820861678,251.18864315095746,81.15612110679672,55.53683047321545,39.6,115.74780869082079,0.18,0.18,OK,0
2.999154706170885,1.1991547061708852,30.856751102382265,25.08741006184377,1.630031609197592,0.0075631126862227,64.7568042292016,2.0,Internal,,,,,,,,,,,,FAILED,3
2.812344119990405,1.012344119990405,43.13458969443216,36.89445448531194,1.075273136891714,0.0029590065962248,69.5515859559871,0.5,Internal,,,,,,,,,,,,FAILED,3
1.3015940427005035,0.9015940427005038,65.45619146580675,57.09982048438845,1.2658533031050885,3.855923742709665,62.53422289582276,0.5,External,,,,,,,,,,,,FAILED,3
2.9255240977187524,1.1255240977187522,43.549468296469456,39.13258464123758,1.1316543298990815,0.0028651806979199,74.19122812750031,2.0,Internal,,,,,,,,,,,,FAILED,3
2.8987451840824825,1.0987451840824825,67.80819034438657,76.24789085294672,4.632913954801292,3.817705073703212,63.743977539127165,1.0,External,,,,,,,,,,,,FAILED,3
1.3557754864815028,1.1557754864815029,42.64782648656775,12.041452220162023,5.265290981044925,0.0074475740076228,34.384842848472886,2.0,Internal,4224.5732078109295,1.7539729005616367,6.031717902315159,15.142857142857142,3981.071705534956,55.020909497785915,51.93384753837667,17.3,23.45491591613,0.18,0.18,OK,0
2.7724501883978503,0.97245018839785,67.23027414453787,87.52076578322543,3.897377625318159,3.754191557473018,60.213470063563065,1.0,External,,,,,,,,,,,,FAILED,3
2.740095174423155,0.9400951744231554,46.43661893170719,34.67798458883466,8.166173054872317,0.003447514354766,72.31230302149524,2.0,Internal,,,,,,,,,,,,FAILED,3
1.5817205438350874,1.1817205438350875,54.500837523417445,55.22881981435139,4.303670829264122,2.3692620978038064,35.06117917362157,2.0,External,1498882.8836762602,87.10928408833443,475.77154030722176,21.653061224489797,281.83829312644474,46.340701935843384,63.40899936099113,156.0,246.74840483827364,0.18,0.18,OK,2
1.5471302187397369,1.1471302187397368,43.23937889587737,41.67228778432426,8.002227188301879,0.007847661978377,26.89501651230269,1.0,Internal,2626.973883663728,0.28735261978340987,0.8477157091085005,7.081632653061225,1995.2623149688723,66.42073396954585,54.387405212634775,13.6,21.04097097486042,0.18,0.18,OK,0
1.4672011508719025,1.0672011508719024,63.33694782611316,35.68759784663892,4.591676747830663,4.451779125776776,39.2761556525573,0.5,External,,,,,,,,,,,,FAILED,3
1.5988473020496334,1.1988473020496335,51.88654852582087,76.06044995528332,4.250854479572248,3.563505493324652,97.0537228773729,2.0,External,,,,,,,,,,,,FAILED,3
1.3709281183629614,1.1709281183629614,44.963678240976925,41.29992738620674,8.722209439065063,0.0099786546766194,31.734683673118106,2.0,Internal,13110.507030495977,3.0825211738041434,5.037028146760554,14.653061224489797,2238.7211385683313,50.987412592341705,58.26892825080726,16.0,21.93484989380738,0.36,0.18,OK,0
1.2233574553983757,1.0233574553983755,49.2231883142033,45.12698893412357,8.642611049515338,0.0046541062153549,11.232869536802308,0.5,Internal,,,,,,,,,,,,FAILED,3
2.704722873898703,0.9047228738987032,65.28706772872854,64.25559306208086,4.04921049800384,0.2907962817695615,85.34076650475869,2.0,External,,,,,,,,,,,,FAILED,3
1.269018605213792,1.069018605213792,47.28866493736729,31.412142795150817,6.228553418993614,0.0099161124135918,78.10571503617112,2.0,Internal,21837.192067357275,7.250945720028565,27.148888121482177,18.081632653061224,2818.382931264443,48.12038360931152,56.290899208376366,39.0,49.49172560333788,0.18,0.18,OK,0
2.912219100009878,1.1122191000098782,41.57680336071185,30.626801787751425,8.815697091472439,0.0044121489253808,43.43373492934908,0.5,Internal,,,,,,,,,,,,FAILED,3
2.7634907695709585,0.9634907695709584,58.86118724660842,51.94402871059886,4.444181198013247,2.359717816144159,94.59386127728402,1.0,External,2033.9034788785048,0.6729191634748947,1.851943219540475,5.800453514739228,199.52623149688756,56.17888035697568,65.55122755983436,45.1,124.63343370765023,0.18,0.18,OK,0
1.3847602079542674,1.1847602079542674,63.49572604334821,69.36550331895005,2.4924904736895344,4.71429073462435,25.06213290131029,0.5,External,1780702.8582537659,117.63222127413611,688.5760511346559,21.51020408163265,199.52623149688756,46.37365390950511,62.01657462269351,111.0,153.7083830829237,0.36,0.36,OK,2
2.907265192965247,1.1072651929652468,69.48495308289512,11.631062188389748,3.218750839120345,3.764192313820925,82.92327280295783,0.5,External,563.3477761267712,1.4175235206370367,2.0081846595804005,6.653061224489797,35.48133892335751,84.22711547539488,70.01336566424595,40.5,117.74424031509251,0.36,0.18,OK,0
1.361249967750473,0.9612499677504728,59.103439834673125,68.43725620229952,4.349468319080603,0.9316693000269236,11.723038119715302,0.5,External,206372.5912831759,3.2362017923387394,17.675414596733983,21.653061224489797,79.43282347242804,49.110603012704075,63.19631514591328,5.84,7.949699811662763,0.18,0.18,OK,0
2.751430253013163,0.9514302530131628,66.76309949977285,81.26703880832754,4.843680587715299,2.7260818863753795,53.96460693939148,1.0,External,,,,,,,,,,,,FAILED,3
1.1461073128532613,0.9461073128532612,66.67583901837655,66.04487298074523,1.3142313236949086,3.728767143971599,18.54175971406116,2.0,External,1085763.8771879901,141.40718142609074,346.75826883243263,20.775510204081634,199.52623149688756,46.34724432224293,62.853486852284355,81.3,93.17852453497014,0.72,0.36,OK,2
1.1633695494418794,0.9633695494418794,69.52373949976167,69.92810885371334,2.5017644386716507,4.0203598171766535,89.6124963629069,0.5,External,,,,,,,,,,,,FAILED,3
1.16016589335358,0.96016589335358,67.94731731581864,64.14990069187252,4.893530476659285,2.3785466358794958,86.26491375142363,1.0,External,,,,,,,,,,,,FAILED,3
2.800583715023489,1.0005837150234886,38.70787292351472,22.81827149364222,7.023777482456913,0.009027037929309,37.54463171705092,1.0,Internal,,,,,,,,,,,,FAILED,3
2.936822826574076,1.1368228265740756,54.21586203100057,26.789748818578875,2.8764288441903147,1.4159546205228488,19.0880296135985,2.0,External,150.9230590828851,0.040031397819081146,0.17319429174110218,1.1111111111111112,158.48931924611105,69.56372665538262,61.08213020234061,9.37,27.51802988499909,0.36,0.54,OK,0
1.2589643783265578,1.058964378326558,65.18585013836947,96.9373392006084,2.758961946031634,1.4640055601470174,81.8463877488268,1.0,External,1262737.1035618954,329.87759424598835,1058.2400393698665,22.0,223.8721138568335,46.11185743472575,64.54000373551241,121.0,152.3346897775135,0.72,0.36,OK,1
1.3898150121116046,0.9898150121116044,30.410416294586504,42.19782554761199,4.290361309035701,0.0041832701792266,37.22311262511339,0.5,Internal,2103.867572792858,0.32320713823157443,0.9279210314051864,6.040816326530612,3981.071705534956,53.43521819623604,54.774577565789926,18.5,25.711577724064686,0.18,0.18,OK,0
1.51200266010331,1.11200266010331,66.0760978096695,18.0291063745106,3.32279633821714,2.576992925910333,22.96709074118796,2.0,External,,,,,,,,,,,,FAILED,3
1.3820921253582314,0.9820921253582316,47.50811250243669,24.87859212369682,9.858110493109905,0.0045613716721641,74.36678093022171,0.5,Internal,2240.0179694840704,1.0919311269350758,3.3479170523020056,8.816326530612244,4466.8359215096125,58.23703094373865,56.551683383976545,36.199999999999996,50.031734937967975,0.18,0.18,OK,0
1.4091428923422802,1.00914289234228,44.50012152598237,30.84294087905949,7.0049110347476296,0.0079934435708658,87.59826762923699,2.0,Internal,2094.269258654121,0.9997722521263058,2.9740088619730485,7.428571428571429,1412.5375446227495,66.73147195695967,56.52322774477828,42.8,60.31131579224959,0.18,0.18,OK,0
2.8614068116091707,1.0614068116091708,61.25110402546095,77.6902312375928,4.761676829202988,0.177533542784422,57.04841274056828,0.5,External,148058.90072433455,11.187355599736275,54.36027891721316,20.72108843537415,199.52623149688756,45.07236418289231,71.29771823681305,28.5,81.55009413086137,0.18,0.18,OK,0
1.4968165065927113,1.0968165065927111,46.76460842163601,21.263170058023384,8.73815207330481,0.0046612432085655,39.54097951105055,2.0,Internal,1786.9032942082813,0.545842679544136,1.6614621985271028,8.46938775510204,4466.8359215096125,55.288949715471674,55.09785931233597,19.700000000000003,29.487285179876416,0.18,0.18,OK,0
1.254155220372979,1.0541552203729794,67.79767452946973,82.6963490372278,3.040593521825293,3.707575069655783,56.160734996692845,1.0,External,,,,,,,,,,,,FAILED,3
2.82083274996987,1.02083274996987,68.64645516457756,75.45224884791962,2.117663536704288,0.7451025850869661,86.92331050838777,0.5,External,1156190.2918831478,92.65402677637631,665.9833820904952,22.0,141.25375446227517,51.47492832463797,70.79496055074995,128.0,361.06659199614336,0.18,0.18,OK,1
2.956278236699201,1.1562782366992006,33.65675559737634,42.156992820230016,3.571368108948013,0.00934411403678,97.29338728106718,1.0,Internal,,,,,,,,,,,,FAILED,3
2.935692931058738,1.1356929310587385,68.7778992008255,89.92859447946127,2.3499213026995927,3.6743724721751527,61.590087500463234,0.5,External,,,,,,,,,,,,FAILED,3
2.996556494398634,1.196556494398634,34.41008526871294,14.81933905484775,8.866645959746666,0.003247020574662,33.69226118662101,0.5,Internal,,,,,,,,,,,,FAILED,3
1.5612007102376553,1.1612007102376554,51.070289258260864,40.77037733998334,1.928222958804624,1.40031354684968,59.89037269063104,0.5,External,,,,,,,,,,,,FAILED,3
1.3881847303050692,0.9881847303050691,68.97005886436389,94.74324455625404,3.439766234384207,4.63016009678631,80.72313809215359,0.5,External,,,,,,,,,,,,FAILED,3
1.1019305634490388,0.9019305634490388,64.04976683176938,63.44909706182933,4.041697246729887,2.6133186073963524,73.36749441892051,0.5,External,,,,,,,,,,,,FAILED,3
1.412741504753826,1.012741504753826,46.551061045480935,12.681876349061609,1.274173176780641,0.0028400353521784,40.637040050283375,2.0,Internal,993.5377369087618,0.5269921058067274,1.5918162145310915,8.122448979591837,630.9573444801915,69.99813668637017,58.31107298947187,20.2,28.537378396027286,0.18,0.18,OK,0
1.50100976134227,1.10100976134227,45.47105483729774,10.55303668425184,6.636901164905756,0.0035062365603479,86.76837957975323,0.5,Internal,770.1597138756135,1.0563126030375722,3.16617445717384,7.775510204081632,5623.4132519034665,57.68747963316168,52.138495816566405,42.7,64.09311680931494,0.18,0.18,OK,0
2.9989194881037164,1.1989194881037166,45.07468140856009,14.697534149039797,4.024063530910979,0.0051911428758605,79.60429430040247,0.5,Internal,98.70407767936629,0.13791246506852228,0.2672988668902458,1.5374149659863945,891.2509381337428,47.04009236722026,59.06320062142097,40.0,119.95677952414866,0.18,0.18,OK,0
2.756741730006896,0.9567417300068954,53.46992100710044,41.07639467733516,4.205783104891815,2.021258526832406,77.56926842899502,2.0,External,1109.5273173803541,0.4111915343290379,1.0476238602151213,4.521541950113379,177.82794100389194,70.96899338937652,63.27608149869414,36.900000000000006,101.72376983725448,0.18,0.18,OK,0
1.5318314258995236,1.1318314258995237,63.54786259777745,58.749247709894654,4.716578868846749,1.9978803380790389,15.95486699509964,0.5,External,726772.1542851664,29.073244424490177,98.68682161362317,22.0,56.23413251903484,48.595798971791034,68.3246294380545,24.0,36.76395422158856,0.36,0.18,OK,1
1.548057568291826,1.148057568291826,51.75097328055561,31.866107413697478,2.6743291421259565,1.533330484833635,39.89850138525895,1.0,External,,,,,,,,,,,,FAILED,3
2.712449750154924,0.9124497501549238,55.30992814858145,63.08904306643778,3.7139998731705512,1.6559935312621836,86.32983115140671,2.0,External,,,,,,,,,,,,FAILED,3
1.5654565353088017,1.1654565353088011,55.54929359449908,31.75352400003501,4.853441281784152,0.1503940300848909,74.44449759179301,0.5,External,392814.8519894054,73.9547884788485,460.4670697796184,22.0,794.3282347242791,45.94064749539433,63.3559911059738,111.0,173.765675419277,0.18,0.18,OK,1
1.486806862284939,1.0868068622849392,45.889616357070125,17.51581199689756,2.2802971579913387,0.0038184688164679,86.45807939391112,1.0,Internal,1372.24332839396,1.1212117139295614,3.3866977635711057,8.122448979591837,891.2509381337428,68.00296780414624,58.59514379503325,43.0,63.93269507825238,0.18,0.18,OK,0
1.3975088220117355,1.1975088220117356,48.70969027054991,13.357988240233354,4.352580383981193,0.0093576750590385,15.562761462030036,0.5,Internal,6437.124882240349,2.205422192376972,3.749795150360706,16.612244897959183,1412.5375446227495,49.13553503038202,58.681697499611175,7.91,11.054294782112828,0.36,0.18,OK,0
2.748837296761869,0.9488372967618688,53.00944542011995,96.96725623781968,2.7868581090340814,2.557438005715816,32.19927542248658,1.0,External,806.0180979692065,0.07037312902086207,0.13382454933223553,1.963718820861678,281.83829312644474,63.57417075149453,57.44427453793486,15.5,42.60697809980897,0.18,0.18,OK,0
1.4985740897911035,1.0985740897911034,42.95032929686727,17.286827869751306,2.59473250910072,0.003648400629734,20.331723452615208,2.0,Internal,1173.794429306361,0.23204902900438093,0.6902730768968014,7.428571428571429,1584.893192461108,65.90291599373717,54.68968337457152,10.299999999999999,15.435313124848365,0.18,0.18,OK,0
2.93526185230958,1.13526185230958,34.24894554390946,34.85856172610535,4.700777399942912,0.0046216563336938,89.61281994066523,2.0,Internal,,,,,,,,,,,,FAILED,3
2.794163422954508,0.9941634229545082,32.141143571083724,24.802612092922946,7.5674071584768,0.0094619872501415,64.34172927361865,0.5,Internal,,,,,,,,,,,,FAILED,3
1.3359673280418136,0.9359673280418136,39.71634857825263,10.261559098642616,7.1393784540547145,0.0095490970142146,22.338051227088087,2.0,Internal,599.5547010267742,0.2231575982982486,0.6525754759210594,6.73469387755102,5623.4132519034665,57.71694944765113,44.323803539265036,11.0,14.69564060845995,0.18,0.18,OK,0
1.2896714452603582,1.0896714452603582,37.80240469376678,20.980924148921567,1.4072427011699906,0.0029611783742681,11.36591940581442,2.0,Internal,5028.03401103793,0.41099779359698696,1.3619092498861254,13.183673469387756,1995.2623149688723,59.14808232614426,51.53204364016815,5.800000000000001,7.480094382510078,0.18,0.18,OK,0
2.7317559707633725,0.9317559707633728,41.33210517810926,34.56637242053483,9.085478199256317,0.0045956690612824,39.41152352719996,0.5,Internal,,,,,,,,,,,,FAILED,3
1.3479653222574393,1.1479653222574393,45.599766538210886,9.443174309719964,1.6809499351369976,0.0042538725887863,18.29511626251891,1.0,Internal,4817.027726315844,1.3012620721776054,4.666231894184897,16.857142857142858,1778.2794100389165,55.16708837318811,55.16717393991009,9.290000000000001,12.522597843771612,0.18,0.18,OK,0
2.76788257524498,0.96788257524498,61.8969475900382,75.19233432763811,1.129773784188748,3.327716429762409,57.9062688356309,2.0,External,1756.3408161927816,0.27448893903705024,0.6762866479599905,4.095238095238095,177.82794100389194,57.388396307950984,62.337389177137226,27.900000000000002,77.22392384933494,0.18,0.18,OK,0
2.936847689527216,1.1368476895272157,41.22511356149848,16.080987243677004,4.8119312439270665,0.0081421358908492,12.8600635921592,1.0,Internal,,,,,,,,,,,,FAILED,3
1.37202122214627,0.97202122214627,51.00699053938706,10.012699496662249,3.7680450237866183,2.343852072726737,30.386946343249512,2.0,External,499.20567028694165,1.643407788869655,3.8507549178172735,6.040816326530612,251.18864315095746,77.84997349320642,51.883492569348306,14.600000000000001,20.031509843335545,1.26,0.72,OK,0
