Circuit: * C:\Users\SnigdhaYS\Documents\LTSpice_LDO_Automation\Internally_Compensated\Miller_LDO_Sim_Benches_502\LDO_loopgain_IIIT.asc

Ignoring BSIM parameter XL
Ignoring BSIM parameter XW
Ignoring BSIM parameter XL
Ignoring BSIM parameter XW
Warning: Pd = 0 is less than W.
Warning: Ps = 0 is less than W.
Warning: Pd = 0 is less than W.
Warning: Ps = 0 is less than W.
Warning: Pd = 0 is less than W.
Warning: Ps = 0 is less than W.
Warning: Pd = 0 is less than W.
Warning: Ps = 0 is less than W.
Direct Newton iteration failed to find .op point.  (Use ".option noopiter" to skip.)
Starting Gmin stepping
Gmin = 10
Gmin = 1.07374
Gmin = 0.115292
Gmin = 0.0123794
Gmin = 0.00132923
Gmin = 0.000142725
Gmin = 1.5325e-005
Gmin = 1.6455e-006
Gmin = 1.76685e-007
Gmin = 1.89714e-008
Gmin = 2.03704e-009
Gmin = 2.18725e-010
Gmin = 2.34854e-011
Gmin = 2.52173e-012
Gmin = 2.70769e-013
Gmin = 0
Gmin stepping succeeded in finding the operating point.

Semiconductor Device Operating Points:
                        --- BSIM3 MOSFETS ---
Name:       mpass        m5          m4          m8          m7
Model:    pmos292p    pmos292p    pmos292p    nmos292p    nmos292p
Id:       -5.01e-04   -2.39e-07   -2.40e-07    5.00e-07    5.16e-07
Vgs:      -4.35e-01   -4.41e-01   -4.41e-01    3.45e-01    3.45e-01
Vds:      -1.99e-01   -4.35e-01   -4.41e-01    3.45e-01    6.01e-01
Vbs:       0.00e+00    0.00e+00    0.00e+00    0.00e+00    0.00e+00
Vth:      -4.49e-01   -4.06e-01   -4.06e-01    3.85e-01    3.85e-01
Vdsat:    -6.94e-02   -7.57e-02   -7.57e-02    5.16e-02    5.17e-02
Gm:        8.43e-03    3.92e-06    3.93e-06    9.26e-06    9.54e-06
Gds:       2.60e-04    4.16e-08    4.14e-08    7.01e-08    5.85e-08
Gmb        2.49e-03    1.14e-06    1.14e-06    2.66e-06    2.74e-06
Cbd:       0.00e+00    0.00e+00    0.00e+00    0.00e+00    0.00e+00
Cbs:       0.00e+00    0.00e+00    0.00e+00    0.00e+00    0.00e+00
Cgsov:     1.61e-12    9.01e-16    9.01e-16    8.58e-15    8.58e-15
Cgdov:     1.61e-12    9.01e-16    9.01e-16    8.58e-15    8.58e-15
Cgbov:     1.21e-19    3.01e-19    3.01e-19    9.66e-19    9.66e-19
dQgdVgb:   4.29e-12    3.69e-15    3.69e-15    5.18e-14    5.20e-14
dQgdVdb:  -1.61e-12   -8.99e-16   -8.99e-16   -8.55e-15   -8.54e-15
dQgdVsb:  -2.35e-12   -2.47e-15   -2.47e-15   -2.77e-14   -2.79e-14
dQddVgb:  -1.91e-12   -1.55e-15   -1.55e-15   -1.68e-14   -1.68e-14
dQddVdb:   1.61e-12    9.00e-16    9.00e-16    8.56e-15    8.56e-15
dQddVsb:   4.01e-13    8.58e-16    8.58e-16    1.09e-14    1.09e-14
dQbdVgb:  -4.63e-13   -5.85e-16   -5.85e-16   -1.83e-14   -1.83e-14
dQbdVdb:  -1.74e-15   -3.08e-19   -2.87e-19   -2.21e-18    3.56e-18
dQbdVsb:  -5.70e-14   -1.51e-16   -1.51e-16   -2.60e-15   -2.61e-15

Name:        m3          m2          m1
Model:    nmos292p    nmos292p    nmos292p
Id:        4.79e-07    2.40e-07    2.39e-07
Vgs:       3.45e-01    4.64e-01    4.64e-01
Vds:       1.36e-01    2.22e-01    2.28e-01
Vbs:       0.00e+00    0.00e+00    0.00e+00
Vth:       3.86e-01    3.89e-01    3.89e-01
Vdsat:     5.16e-02    8.23e-02    8.22e-02
Gm:        8.86e-06    3.92e-06    3.92e-06
Gds:       1.94e-07    8.39e-08    8.10e-08
Gmb        2.55e-06    1.07e-06    1.07e-06
Cbd:       0.00e+00    0.00e+00    0.00e+00
Cbs:       0.00e+00    0.00e+00    0.00e+00
Cgsov:     8.58e-15    2.82e-16    2.82e-16
Cgdov:     8.58e-15    2.82e-16    2.82e-16
Cgbov:     9.66e-19    5.06e-19    5.06e-19
dQgdVgb:   5.18e-14    1.60e-15    1.60e-15
dQgdVdb:  -8.63e-15   -2.81e-16   -2.81e-16
dQgdVsb:  -2.76e-14   -1.20e-15   -1.20e-15
dQddVgb:  -1.68e-14   -6.71e-16   -6.71e-16
dQddVdb:   8.65e-15    2.83e-16    2.82e-16
dQddVsb:   1.08e-14    5.11e-16    5.11e-16
dQbdVgb:  -1.82e-14   -2.59e-16   -2.60e-16
dQbdVdb:  -8.35e-17   -2.71e-18   -2.46e-18
dQbdVsb:  -2.65e-15   -1.02e-16   -1.01e-16



Date: Wed Nov 26 11:36:46 2025
Total elapsed time: 0.065 seconds.

tnom = 27
temp = 125
method = trap
totiter = 460
traniter = 0
tranpoints = 0
accept = 0
rejected = 0
matrix size = 12
fillins = 9
solver = Normal
Matrix Compiler1:      64 opcodes
Matrix Compiler2: off  [0.2]/0.2/0.9

