Circuit: * C:\Users\SnigdhaYS\Documents\LTSpice_LDO_Automation\Internally_Compensated\Miller_LDO_Sim_Benches_502\LDO_PSRR_IIIT.asc

Ignoring BSIM parameter XL
Ignoring BSIM parameter XW
Ignoring BSIM parameter XL
Ignoring BSIM parameter XW
Warning: Pd = 0 is less than W.
Warning: Ps = 0 is less than W.
Warning: Pd = 0 is less than W.
Warning: Ps = 0 is less than W.
Warning: Pd = 0 is less than W.
Warning: Ps = 0 is less than W.
Warning: Pd = 0 is less than W.
Warning: Ps = 0 is less than W.
Direct Newton iteration failed to find .op point.  (Use ".option noopiter" to skip.)
Starting Gmin stepping
Gmin = 10
Gmin = 1.07374
Gmin = 0.115292
Gmin = 0.0123794
Gmin = 0.00132923
Gmin = 0.000142725
Gmin = 1.5325e-005
Gmin = 1.6455e-006
Gmin = 1.76685e-007
Gmin = 1.89714e-008
Gmin = 2.03704e-009
Gmin = 2.18725e-010
Gmin = 2.34854e-011
Gmin = 2.52173e-012
Gmin = 2.70769e-013
Gmin = 0
Gmin stepping succeeded in finding the operating point.

Semiconductor Device Operating Points:
                        --- BSIM3 MOSFETS ---
Name:       mpass        m5          m4          m8          m7
Model:    pmos292p    pmos292p    pmos292p    nmos292p    nmos292p
Id:       -2.00e-03   -2.40e-07   -2.36e-07    5.00e-07    5.18e-07
Vgs:      -5.19e-01   -4.47e-01   -4.47e-01    3.66e-01    3.66e-01
Vds:      -2.02e-01   -5.19e-01   -4.47e-01    3.66e-01    5.98e-01
Vbs:       0.00e+00    0.00e+00    0.00e+00    0.00e+00    0.00e+00
Vth:      -4.85e-01   -4.42e-01   -4.42e-01    4.21e-01    4.21e-01
Vdsat:    -7.22e-02   -5.66e-02   -5.66e-02    3.85e-02    3.85e-02
Gm:        3.88e-02    5.05e-06    4.98e-06    1.21e-05    1.25e-05
Gds:       1.18e-03    4.95e-08    5.09e-08    8.19e-08    7.41e-08
Gmb        1.16e-02    1.52e-06    1.50e-06    3.60e-06    3.72e-06
Cbd:       0.00e+00    0.00e+00    0.00e+00    0.00e+00    0.00e+00
Cbs:       0.00e+00    0.00e+00    0.00e+00    0.00e+00    0.00e+00
Cgsov:     1.61e-12    9.01e-16    9.01e-16    8.58e-15    8.58e-15
Cgdov:     1.61e-12    9.01e-16    9.01e-16    8.58e-15    8.58e-15
Cgbov:     1.21e-19    3.01e-19    3.01e-19    9.66e-19    9.66e-19
dQgdVgb:   4.64e-12    3.46e-15    3.46e-15    4.59e-14    4.60e-14
dQgdVdb:  -1.61e-12   -8.99e-16   -8.99e-16   -8.56e-15   -8.55e-15
dQgdVsb:  -2.82e-12   -2.16e-15   -2.16e-15   -1.98e-14   -2.00e-14
dQddVgb:  -2.11e-12   -1.42e-15   -1.42e-15   -1.34e-14   -1.34e-14
dQddVdb:   1.61e-12    9.00e-16    9.00e-16    8.57e-15    8.56e-15
dQddVsb:   6.52e-13    6.92e-16    6.91e-16    6.41e-15    6.48e-15
dQbdVgb:  -4.31e-13   -6.09e-16   -6.09e-16   -1.91e-14   -1.91e-14
dQbdVdb:  -2.97e-15    2.59e-20   -5.71e-20    5.49e-19    2.39e-18
dQbdVsb:  -8.88e-14   -1.23e-16   -1.23e-16   -1.55e-15   -1.56e-15

Name:        m3          m2          m1
Model:    nmos292p    nmos292p    nmos292p
Id:        4.76e-07    2.36e-07    2.40e-07
Vgs:       3.66e-01    4.57e-01    4.59e-01
Vds:       1.41e-01    2.12e-01    1.40e-01
Vbs:       0.00e+00    0.00e+00    0.00e+00
Vth:       4.22e-01    4.25e-01    4.26e-01
Vdsat:     3.84e-02    5.95e-02    6.02e-02
Gm:        1.15e-05    4.99e-06    5.01e-06
Gds:       1.79e-07    8.86e-08    1.65e-07
Gmb        3.43e-06    1.44e-06    1.45e-06
Cbd:       0.00e+00    0.00e+00    0.00e+00
Cbs:       0.00e+00    0.00e+00    0.00e+00
Cgsov:     8.58e-15    2.82e-16    2.82e-16
Cgdov:     8.58e-15    2.82e-16    2.82e-16
Cgbov:     9.66e-19    5.06e-19    5.06e-19
dQgdVgb:   4.59e-14    1.50e-15    1.51e-15
dQgdVdb:  -8.59e-15   -2.80e-16   -2.83e-16
dQgdVsb:  -1.97e-14   -1.07e-15   -1.09e-15
dQddVgb:  -1.34e-14   -6.14e-16   -6.23e-16
dQddVdb:   8.59e-15    2.81e-16    2.85e-16
dQddVsb:   6.37e-15    4.39e-16    4.49e-16
dQbdVgb:  -1.91e-14   -2.72e-16   -2.67e-16
dQbdVdb:  -2.77e-17   -1.15e-18   -4.56e-18
dQbdVsb:  -1.58e-15   -8.95e-17   -9.30e-17


.step iload=0.002
.step iload=0.01

Date: Wed Nov 26 11:36:48 2025
Total elapsed time: 0.100 seconds.

tnom = 27
temp = 27
method = trap
totiter = 14
traniter = 0
tranpoints = 0
accept = 0
rejected = 0
matrix size = 9
fillins = 0
solver = Normal
Matrix Compiler1:      39 opcodes
Matrix Compiler2: 837 bytes object code size
