Circuit: * C:\Users\SnigdhaYS\Documents\LTSpice_LDO_Automation\Internally_Compensated\Miller_LDO_Sim_Benches_502\LDO_loopgain_IIIT.asc

Ignoring BSIM parameter XL
Ignoring BSIM parameter XW
Ignoring BSIM parameter XL
Ignoring BSIM parameter XW
Warning: Pd = 0 is less than W.
Warning: Ps = 0 is less than W.
Warning: Pd = 0 is less than W.
Warning: Ps = 0 is less than W.
Warning: Pd = 0 is less than W.
Warning: Ps = 0 is less than W.
Warning: Pd = 0 is less than W.
Warning: Ps = 0 is less than W.
Direct Newton iteration failed to find .op point.  (Use ".option noopiter" to skip.)
Starting Gmin stepping
Gmin = 10
Gmin = 1.07374
Gmin = 0.115292
Gmin = 0.0123794
Gmin = 0.00132923
Gmin = 0.000142725
Gmin = 1.5325e-005
Gmin = 1.6455e-006
Gmin = 1.76685e-007
Gmin = 1.89714e-008
Gmin = 2.03704e-009
Gmin = 2.18725e-010
Gmin = 2.34854e-011
Gmin = 2.52173e-012
Gmin = 2.70769e-013
Gmin = 0
Gmin stepping succeeded in finding the operating point.

Semiconductor Device Operating Points:
                        --- BSIM3 MOSFETS ---
Name:       mpass        m5          m4          m8          m7
Model:    pmos292p    pmos292p    pmos292p    nmos292p    nmos292p
Id:       -1.00e-03   -2.35e-07   -2.33e-07    5.00e-07    5.16e-07
Vgs:      -5.58e-01   -4.96e-01   -4.96e-01    3.45e-01    3.45e-01
Vds:      -2.02e-01   -5.58e-01   -4.96e-01    3.45e-01    5.98e-01
Vbs:       0.00e+00    0.00e+00    0.00e+00    0.00e+00    0.00e+00
Vth:      -4.49e-01   -3.84e-01   -3.84e-01    3.85e-01    3.85e-01
Vdsat:    -1.16e-01   -1.05e-01   -1.05e-01    5.16e-02    5.17e-02
Gm:        1.37e-02    3.31e-06    3.30e-06    9.26e-06    9.54e-06
Gds:       6.41e-04    2.26e-08    2.32e-08    7.01e-08    5.86e-08
Gmb        3.89e-03    9.57e-07    9.52e-07    2.66e-06    2.74e-06
Cbd:       0.00e+00    0.00e+00    0.00e+00    0.00e+00    0.00e+00
Cbs:       0.00e+00    0.00e+00    0.00e+00    0.00e+00    0.00e+00
Cgsov:     4.70e-13    6.27e-16    6.27e-16    8.58e-15    8.58e-15
Cgdov:     4.70e-13    6.27e-16    6.27e-16    8.58e-15    8.58e-15
Cgbov:     1.21e-19    6.61e-19    6.61e-19    9.66e-19    9.66e-19
dQgdVgb:   1.43e-12    4.72e-15    4.72e-15    5.18e-14    5.19e-14
dQgdVdb:  -4.72e-13   -6.24e-16   -6.25e-16   -8.55e-15   -8.54e-15
dQgdVsb:  -9.17e-13   -3.79e-15   -3.79e-15   -2.77e-14   -2.79e-14
dQddVgb:  -6.55e-13   -1.97e-15   -1.97e-15   -1.68e-14   -1.68e-14
dQddVdb:   4.72e-13    6.26e-16    6.27e-16    8.56e-15    8.56e-15
dQddVsb:   2.39e-13    1.77e-15    1.77e-15    1.09e-14    1.09e-14
dQbdVgb:  -1.19e-13   -7.75e-16   -7.74e-16   -1.83e-14   -1.83e-14
dQbdVdb:  -3.11e-15   -4.24e-19   -8.25e-19   -2.21e-18    3.53e-18
dQbdVsb:  -3.13e-14   -3.69e-16   -3.70e-16   -2.60e-15   -2.61e-15

Name:        m3          m2          m1
Model:    nmos292p    nmos292p    nmos292p
Id:        4.68e-07    2.33e-07    2.35e-07
Vgs:       3.45e-01    4.99e-01    5.01e-01
Vds:       9.88e-02    2.05e-01    1.43e-01
Vbs:       0.00e+00    0.00e+00    0.00e+00
Vth:       3.86e-01    3.63e-01    3.63e-01
Vdsat:     5.16e-02    1.10e-01    1.11e-01
Gm:        8.64e-06    3.24e-06    3.16e-06
Gds:       4.27e-07    6.32e-08    2.15e-07
Gmb        2.49e-06    8.74e-07    8.54e-07
Cbd:       0.00e+00    0.00e+00    0.00e+00
Cbs:       0.00e+00    0.00e+00    0.00e+00
Cgsov:     8.58e-15    2.76e-16    2.76e-16
Cgdov:     8.58e-15    2.76e-16    2.76e-16
Cgbov:     9.66e-19    1.23e-18    1.23e-18
dQgdVgb:   5.19e-14    3.23e-15    3.28e-15
dQgdVdb:  -8.75e-15   -2.96e-16   -3.52e-16
dQgdVsb:  -2.76e-14   -2.73e-15   -2.73e-15
dQddVgb:  -1.69e-14   -1.34e-15   -1.39e-15
dQddVdb:   8.76e-15    2.97e-16    3.50e-16
dQddVsb:   1.09e-14    1.38e-15    1.38e-15
dQbdVgb:  -1.81e-14   -5.39e-16   -5.01e-16
dQbdVdb:  -1.92e-16   -2.15e-17   -7.20e-17
dQbdVsb:  -2.67e-15   -3.13e-16   -3.11e-16



Date: Thu Nov 27 02:42:15 2025
Total elapsed time: 0.103 seconds.

tnom = 27
temp = 125
method = trap
totiter = 453
traniter = 0
tranpoints = 0
accept = 0
rejected = 0
matrix size = 12
fillins = 9
solver = Normal
Matrix Compiler1:      64 opcodes
Matrix Compiler2: off  [0.2]/0.3/0.4

