Circuit: * C:\Users\SnigdhaYS\Documents\LTSpice_LDO_Automation\Internally_Compensated\Miller_LDO_Sim_Benches_502\LDO_PSRR_IIIT.asc

Ignoring BSIM parameter XL
Ignoring BSIM parameter XW
Ignoring BSIM parameter XL
Ignoring BSIM parameter XW
Warning: Pd = 0 is less than W.
Warning: Ps = 0 is less than W.
Warning: Pd = 0 is less than W.
Warning: Ps = 0 is less than W.
Warning: Pd = 0 is less than W.
Warning: Ps = 0 is less than W.
Warning: Pd = 0 is less than W.
Warning: Ps = 0 is less than W.
Direct Newton iteration failed to find .op point.  (Use ".option noopiter" to skip.)
Starting Gmin stepping
Gmin = 10
Gmin = 1.07374
Gmin = 0.115292
Gmin = 0.0123794
Gmin = 0.00132923
Gmin = 0.000142725
Gmin = 1.5325e-005
Gmin = 1.6455e-006
Gmin = 1.76685e-007
Gmin = 1.89714e-008
Gmin = 2.03704e-009
Gmin = 2.18725e-010
Gmin = 2.34854e-011
Gmin = 2.52173e-012
Gmin = 2.70769e-013
Gmin = 0
Gmin stepping succeeded in finding the operating point.

Semiconductor Device Operating Points:
                        --- BSIM3 MOSFETS ---
Name:       mpass        m5          m4          m8          m7
Model:    pmos292p    pmos292p    pmos292p    nmos292p    nmos292p
Id:       -2.00e-03   -2.37e-07   -2.34e-07    5.00e-07    5.18e-07
Vgs:      -5.91e-01   -4.87e-01   -4.87e-01    3.66e-01    3.66e-01
Vds:      -2.05e-01   -5.91e-01   -4.87e-01    3.66e-01    5.95e-01
Vbs:       0.00e+00    0.00e+00    0.00e+00    0.00e+00    0.00e+00
Vth:      -4.85e-01   -4.20e-01   -4.20e-01    4.21e-01    4.21e-01
Vdsat:    -1.11e-01   -7.92e-02   -7.92e-02    3.85e-02    3.85e-02
Gm:        2.88e-02    4.20e-06    4.16e-06    1.21e-05    1.25e-05
Gds:       1.42e-03    2.96e-08    3.04e-08    8.19e-08    7.42e-08
Gmb        8.59e-03    1.28e-06    1.26e-06    3.60e-06    3.72e-06
Cbd:       0.00e+00    0.00e+00    0.00e+00    0.00e+00    0.00e+00
Cbs:       0.00e+00    0.00e+00    0.00e+00    0.00e+00    0.00e+00
Cgsov:     4.70e-13    6.27e-16    6.27e-16    8.58e-15    8.58e-15
Cgdov:     4.70e-13    6.27e-16    6.27e-16    8.58e-15    8.58e-15
Cgbov:     1.21e-19    6.61e-19    6.61e-19    9.66e-19    9.66e-19
dQgdVgb:   1.45e-12    4.59e-15    4.59e-15    4.59e-14    4.60e-14
dQgdVdb:  -4.72e-13   -6.24e-16   -6.24e-16   -8.56e-15   -8.55e-15
dQgdVsb:  -9.43e-13   -3.63e-15   -3.63e-15   -1.98e-14   -2.00e-14
dQddVgb:  -6.65e-13   -1.90e-15   -1.90e-15   -1.34e-14   -1.34e-14
dQddVdb:   4.72e-13    6.26e-16    6.26e-16    8.57e-15    8.56e-15
dQddVsb:   2.53e-13    1.68e-15    1.68e-15    6.41e-15    6.48e-15
dQbdVgb:  -1.18e-13   -7.92e-16   -7.91e-16   -1.91e-14   -1.91e-14
dQbdVdb:  -2.69e-15    3.02e-20   -2.99e-19    5.49e-19    2.38e-18
dQbdVsb:  -3.32e-14   -3.56e-16   -3.57e-16   -1.55e-15   -1.56e-15

Name:        m3          m2          m1
Model:    nmos292p    nmos292p    nmos292p
Id:        4.71e-07    2.34e-07    2.37e-07
Vgs:       3.66e-01    4.80e-01    4.85e-01
Vds:       1.15e-01    1.98e-01    9.40e-02
Vbs:       0.00e+00    0.00e+00    0.00e+00
Vth:       4.22e-01    3.99e-01    3.99e-01
Vdsat:     3.84e-02    8.01e-02    8.27e-02
Gm:        1.14e-05    4.14e-06    3.90e-06
Gds:       2.57e-07    5.70e-08    5.50e-07
Gmb        3.39e-06    1.19e-06    1.12e-06
Cbd:       0.00e+00    0.00e+00    0.00e+00
Cbs:       0.00e+00    0.00e+00    0.00e+00
Cgsov:     8.58e-15    2.76e-16    2.76e-16
Cgdov:     8.58e-15    2.76e-16    2.76e-16
Cgbov:     9.66e-19    1.23e-18    1.23e-18
dQgdVgb:   4.59e-14    3.14e-15    3.24e-15
dQgdVdb:  -8.61e-15   -2.84e-16   -3.77e-16
dQgdVsb:  -1.97e-14   -2.63e-15   -2.67e-15
dQddVgb:  -1.34e-14   -1.29e-15   -1.38e-15
dQddVdb:   8.62e-15    2.85e-16    3.73e-16
dQddVsb:   6.38e-15    1.33e-15    1.36e-15
dQbdVgb:  -1.91e-14   -5.59e-16   -4.87e-16
dQbdVdb:  -4.79e-17   -9.89e-18   -9.43e-17
dQbdVsb:  -1.59e-15   -3.10e-16   -3.19e-16


.step iload=0.002
.step iload=0.01

Date: Thu Nov 27 02:42:04 2025
Total elapsed time: 0.085 seconds.

tnom = 27
temp = 27
method = trap
totiter = 35
traniter = 0
tranpoints = 0
accept = 0
rejected = 0
matrix size = 9
fillins = 0
solver = Normal
Matrix Compiler1:      39 opcodes
Matrix Compiler2:      64 opcodes
