,Wpass,Wdiff,Wload,gm_id,fp1_sim,phase_margin,loop_gain_error,fp1_error,Iq_sim,Iq_error,Power,l1,l2,freq,mag_db,phase_deg,f0db_sim,phase_margin_sim,loop_gain,ibias,Iload,Cload,Vin,Vout,iload_min,tdelay,trise,tfall,ton,tperiod,ncycles,Best_or_default
0,1205.7710162232954u,3.032859390350214u,7.554208840548477u,10.323232323232324,501.1872336272709,45.0258245404845,2.1800393409873564,-2.886470776027816,24.4,1.2000000000000028,34.16,0.54u,0.36u,"[1.00000000e+01 1.12201845e+01 1.25892541e+01 1.41253754e+01
 1.58489319e+01 1.77827941e+01 1.99526231e+01 2.23872114e+01
 2.51188643e+01 2.81838293e+01 3.16227766e+01 3.54813389e+01
 3.98107171e+01 4.46683592e+01 5.01187234e+01 5.62341325e+01
 6.30957344e+01 7.07945784e+01 7.94328235e+01 8.91250938e+01
 1.00000000e+02 1.12201845e+02 1.25892541e+02 1.41253754e+02
 1.58489319e+02 1.77827941e+02 1.99526231e+02 2.23872114e+02
 2.51188643e+02 2.81838293e+02 3.16227766e+02 3.54813389e+02
 3.98107171e+02 4.46683592e+02 5.01187234e+02 5.62341325e+02
 6.30957344e+02 7.07945784e+02 7.94328235e+02 8.91250938e+02
 1.00000000e+03 1.12201845e+03 1.25892541e+03 1.41253754e+03
 1.58489319e+03 1.77827941e+03 1.99526231e+03 2.23872114e+03
 2.51188643e+03 2.81838293e+03 3.16227766e+03 3.54813389e+03
 3.98107171e+03 4.46683592e+03 5.01187234e+03 5.62341325e+03
 6.30957344e+03 7.07945784e+03 7.94328235e+03 8.91250938e+03
 1.00000000e+04 1.12201845e+04 1.25892541e+04 1.41253754e+04
 1.58489319e+04 1.77827941e+04 1.99526231e+04 2.23872114e+04
 2.51188643e+04 2.81838293e+04 3.16227766e+04 3.54813389e+04
 3.98107171e+04 4.46683592e+04 5.01187234e+04 5.62341325e+04
 6.30957344e+04 7.07945784e+04 7.94328235e+04 8.91250938e+04
 1.00000000e+05 1.12201845e+05 1.25892541e+05 1.41253754e+05
 1.58489319e+05 1.77827941e+05 1.99526231e+05 2.23872114e+05
 2.51188643e+05 2.81838293e+05 3.16227766e+05 3.54813389e+05
 3.98107171e+05 4.46683592e+05 5.01187234e+05 5.62341325e+05
 6.30957344e+05 7.07945784e+05 7.94328235e+05 8.91250938e+05
 1.00000000e+06 1.12201845e+06 1.25892541e+06 1.41253754e+06
 1.58489319e+06 1.77827941e+06 1.99526231e+06 2.23872114e+06
 2.51188643e+06 2.81838293e+06 3.16227766e+06 3.54813389e+06
 3.98107171e+06 4.46683592e+06 5.01187234e+06 5.62341325e+06
 6.30957344e+06 7.07945784e+06 7.94328235e+06 8.91250938e+06
 1.00000000e+07 1.12201845e+07 1.25892541e+07 1.41253754e+07
 1.58489319e+07 1.77827941e+07 1.99526231e+07 2.23872114e+07
 2.51188643e+07 2.81838293e+07 3.16227766e+07 3.54813389e+07
 3.98107171e+07 4.46683592e+07 5.01187234e+07 5.62341325e+07
 6.30957344e+07 7.07945784e+07 7.94328235e+07 8.91250938e+07
 1.00000000e+08 1.12201845e+08 1.25892541e+08 1.41253754e+08
 1.58489319e+08 1.77827941e+08 1.99526231e+08 2.23872114e+08
 2.51188643e+08 2.81838293e+08 3.16227766e+08 3.54813389e+08
 3.98107171e+08 4.46683592e+08 5.01187234e+08 5.62341325e+08
 6.30957344e+08 7.07945784e+08 7.94328235e+08 8.91250938e+08
 1.00000000e+09]","[ 6.13080236e+01  6.13075434e+01  6.13069390e+01  6.13061782e+01
  6.13052206e+01  6.13040153e+01  6.13024984e+01  6.13005896e+01
  6.12981877e+01  6.12951657e+01  6.12913643e+01  6.12865833e+01
  6.12805718e+01  6.12730157e+01  6.12635217e+01  6.12515990e+01
  6.12366355e+01  6.12178706e+01  6.11943617e+01  6.11649456e+01
  6.11281940e+01  6.10823643e+01  6.10253474e+01  6.09546157e+01
  6.08671771e+01  6.07595440e+01  6.06277280e+01  6.04672755e+01
  6.02733581e+01  6.00409326e+01  5.97649742e+01  5.94407778e+01
  5.90642998e+01  5.86324996e+01  5.81436233e+01  5.75973798e+01
  5.69949698e+01  5.63389647e+01  5.56330583e+01  5.48817412e+01
  5.40899528e+01  5.32627606e+01  5.24050988e+01  5.15215797e+01
  5.06163783e+01  4.96931763e+01  4.87551541e+01  4.78050131e+01
  4.68450168e+01  4.58770415e+01  4.49026286e+01  4.39230354e+01
  4.29392812e+01  4.19521881e+01  4.09624160e+01  3.99704921e+01
  3.89768354e+01  3.79817769e+01  3.69855751e+01  3.59884296e+01
  3.49904907e+01  3.39918670e+01  3.29926312e+01  3.19928237e+01
  3.09924547e+01  2.99915046e+01  2.89899233e+01  2.79876272e+01
  2.69844954e+01  2.59803632e+01  2.49750136e+01  2.39681670e+01
  2.29594668e+01  2.19484623e+01  2.09345878e+01  1.99171358e+01
  1.88952266e+01  1.78677711e+01  1.68334281e+01  1.57905570e+01
  1.47371658e+01  1.36708591e+01  1.25887893e+01  1.14876201e+01
  1.03635126e+01  9.21214636e+00  8.02879243e+00  6.80845115e+00
  5.54606377e+00  4.23679483e+00  2.87636581e+00  1.46140193e+00
 -1.02604685e-02 -1.53936112e+00 -3.12514028e+00 -4.76541630e+00
 -6.45679997e+00 -8.19500283e+00 -9.97518409e+00 -1.17922838e+01
 -1.36413043e+01 -1.55175211e+01 -1.74166192e+01 -1.93347656e+01
 -2.12686301e+01 -2.32153704e+01 -2.51725954e+01 -2.71383166e+01
 -2.91108956e+01 -3.10889926e+01 -3.30715182e+01 -3.50575912e+01
 -3.70465012e+01 -3.90376777e+01 -4.10306635e+01 -4.30250930e+01
 -4.50206747e+01 -4.70171765e+01 -4.90144142e+01 -5.10122419e+01
 -5.30105449e+01 -5.50092332e+01 -5.70082373e+01 -5.90075044e+01
 -6.10069956e+01 -6.30066839e+01 -6.50065528e+01 -6.70065954e+01
 -6.90068139e+01 -7.10072201e+01 -7.30078358e+01 -7.50086940e+01
 -7.70098407e+01 -7.90113373e+01 -8.10132643e+01 -8.30157255e+01
 -8.50188534e+01 -8.70228172e+01 -8.90278317e+01 -9.10341691e+01
 -9.30421746e+01 -9.50522845e+01 -9.70650505e+01 -9.90811675e+01
 -1.01101508e+02 -1.03127163e+02 -1.05159484e+02 -1.07200129e+02
 -1.09251108e+02 -1.11314814e+02 -1.13394041e+02 -1.15491971e+02
 -1.17612121e+02 -1.19758241e+02 -1.21934144e+02 -1.24143470e+02
 -1.26389400e+02 -1.28674319e+02 -1.30999499e+02 -1.33364844e+02
 -1.35768775e+02]","[ 1.78814469e+02  1.78669861e+02  1.78507628e+02  1.78325628e+02
  1.78121462e+02  1.77892440e+02  1.77635554e+02  1.77347436e+02
  1.77024322e+02  1.76662008e+02  1.76255804e+02  1.75800483e+02
  1.75290237e+02  1.74718622e+02  1.74078513e+02  1.73362062e+02
  1.72560667e+02  1.71664960e+02  1.70664823e+02  1.69549446e+02
  1.68307439e+02  1.66927029e+02  1.65396357e+02  1.63703913e+02
  1.61839124e+02  1.59793128e+02  1.57559727e+02  1.55136504e+02
  1.52526016e+02  1.49736950e+02  1.46785051e+02  1.43693585e+02
  1.40493133e+02  1.37220553e+02  1.33917126e+02  1.30626052e+02
  1.27389656e+02  1.24246727e+02  1.21230373e+02  1.18366664e+02
  1.15674109e+02  1.13163882e+02  1.10840600e+02  1.08703409e+02
  1.06747180e+02  1.04963665e+02  1.03342512e+02  1.01872107e+02
  1.00540224e+02  9.93345169e+01  9.82428514e+01  9.72535355e+01
  9.63554518e+01  9.55381254e+01  9.47917425e+01  9.41071363e+01
  9.34757486e+01  9.28895768e+01  9.23411115e+01  9.18232680e+01
  9.13293155e+01  9.08528037e+01  9.03874904e+01  8.99272677e+01
  8.94660892e+01  8.89978971e+01  8.85165488e+01  8.80157439e+01
  8.74889515e+01  8.69293360e+01  8.63296860e+01  8.56823426e+01
  8.49791334e+01  8.42113119e+01  8.33695087e+01  8.24436997e+01
  8.14232005e+01  8.02966990e+01  7.90523415e+01  7.76778925e+01
  7.61609926e+01  7.44895412e+01  7.26522312e+01  7.06392610e+01
  6.84432313e+01  6.60602112e+01  6.34909183e+01  6.07419007e+01
  5.78265510e+01  5.47657329e+01  5.15877931e+01  4.83277807e+01
  4.50258245e+01  4.17247938e+01  3.84675476e+01  3.52941862e+01
  3.22397210e+01  2.93324627e+01  2.65932532e+01  2.40354874e+01
  2.16657486e+01  1.94848273e+01  1.74889063e+01  1.56707416e+01
  1.40207297e+01  1.25278048e+01  1.11801513e+01  9.96574039e+00
  8.87271566e+00  7.88965387e+00  7.00572946e+00  6.21080618e+00
  5.49547612e+00  4.85106167e+00  4.26959246e+00  3.74376609e+00
  3.26689916e+00  2.83287281e+00  2.43607614e+00  2.07134924e+00
  1.73392721e+00  1.41938586e+00  1.12358934e+00  8.42639785e-01
  5.72828841e-01  3.10590844e-01  5.24572379e-02 -2.04988093e-01
 -4.65153047e-01 -7.31481512e-01 -1.00749803e+00 -1.29685335e+00
 -1.60337137e+00 -1.93109782e+00 -2.28435098e+00 -2.66777487e+00
 -3.08639465e+00 -3.54567426e+00 -4.05157531e+00 -4.61061595e+00
 -5.22992678e+00 -5.91729974e+00 -6.68122304e+00 -7.53089220e+00
 -8.47618337e+00 -9.52757042e+00 -1.06959634e+01 -1.19924430e+01
 -1.34278674e+01 -1.50123308e+01 -1.67544686e+01 -1.86606185e+01
 -2.07338758e+01 -2.29731168e+01 -2.53721059e+01 -2.79188574e+01
 -3.05954606e+01 -3.33785865e+01 -3.62408376e+01 -3.91529619e+01
 -4.20867402e+01]",398107.17055349407,45.0258245404845,61.308023604592414,50.0u,10.0m,1.0u,1.4,1.0,2.0m,0.0u,0.001u,0.001u,0.25u,0.5u,1000.0,Best
1,1205.7710162232954u,3.032859390350214u,7.554208840548477u,10.323232323232324,501.1872336272709,45.0258245404845,2.1800393409873564,-2.886470776027816,24.4,1.2000000000000028,34.16,0.54u,0.36u,"[1.00000000e+01 1.12201845e+01 1.25892541e+01 1.41253754e+01
 1.58489319e+01 1.77827941e+01 1.99526231e+01 2.23872114e+01
 2.51188643e+01 2.81838293e+01 3.16227766e+01 3.54813389e+01
 3.98107171e+01 4.46683592e+01 5.01187234e+01 5.62341325e+01
 6.30957344e+01 7.07945784e+01 7.94328235e+01 8.91250938e+01
 1.00000000e+02 1.12201845e+02 1.25892541e+02 1.41253754e+02
 1.58489319e+02 1.77827941e+02 1.99526231e+02 2.23872114e+02
 2.51188643e+02 2.81838293e+02 3.16227766e+02 3.54813389e+02
 3.98107171e+02 4.46683592e+02 5.01187234e+02 5.62341325e+02
 6.30957344e+02 7.07945784e+02 7.94328235e+02 8.91250938e+02
 1.00000000e+03 1.12201845e+03 1.25892541e+03 1.41253754e+03
 1.58489319e+03 1.77827941e+03 1.99526231e+03 2.23872114e+03
 2.51188643e+03 2.81838293e+03 3.16227766e+03 3.54813389e+03
 3.98107171e+03 4.46683592e+03 5.01187234e+03 5.62341325e+03
 6.30957344e+03 7.07945784e+03 7.94328235e+03 8.91250938e+03
 1.00000000e+04 1.12201845e+04 1.25892541e+04 1.41253754e+04
 1.58489319e+04 1.77827941e+04 1.99526231e+04 2.23872114e+04
 2.51188643e+04 2.81838293e+04 3.16227766e+04 3.54813389e+04
 3.98107171e+04 4.46683592e+04 5.01187234e+04 5.62341325e+04
 6.30957344e+04 7.07945784e+04 7.94328235e+04 8.91250938e+04
 1.00000000e+05 1.12201845e+05 1.25892541e+05 1.41253754e+05
 1.58489319e+05 1.77827941e+05 1.99526231e+05 2.23872114e+05
 2.51188643e+05 2.81838293e+05 3.16227766e+05 3.54813389e+05
 3.98107171e+05 4.46683592e+05 5.01187234e+05 5.62341325e+05
 6.30957344e+05 7.07945784e+05 7.94328235e+05 8.91250938e+05
 1.00000000e+06 1.12201845e+06 1.25892541e+06 1.41253754e+06
 1.58489319e+06 1.77827941e+06 1.99526231e+06 2.23872114e+06
 2.51188643e+06 2.81838293e+06 3.16227766e+06 3.54813389e+06
 3.98107171e+06 4.46683592e+06 5.01187234e+06 5.62341325e+06
 6.30957344e+06 7.07945784e+06 7.94328235e+06 8.91250938e+06
 1.00000000e+07 1.12201845e+07 1.25892541e+07 1.41253754e+07
 1.58489319e+07 1.77827941e+07 1.99526231e+07 2.23872114e+07
 2.51188643e+07 2.81838293e+07 3.16227766e+07 3.54813389e+07
 3.98107171e+07 4.46683592e+07 5.01187234e+07 5.62341325e+07
 6.30957344e+07 7.07945784e+07 7.94328235e+07 8.91250938e+07
 1.00000000e+08 1.12201845e+08 1.25892541e+08 1.41253754e+08
 1.58489319e+08 1.77827941e+08 1.99526231e+08 2.23872114e+08
 2.51188643e+08 2.81838293e+08 3.16227766e+08 3.54813389e+08
 3.98107171e+08 4.46683592e+08 5.01187234e+08 5.62341325e+08
 6.30957344e+08 7.07945784e+08 7.94328235e+08 8.91250938e+08
 1.00000000e+09]","[ 6.13080236e+01  6.13075434e+01  6.13069390e+01  6.13061782e+01
  6.13052206e+01  6.13040153e+01  6.13024984e+01  6.13005896e+01
  6.12981877e+01  6.12951657e+01  6.12913643e+01  6.12865833e+01
  6.12805718e+01  6.12730157e+01  6.12635217e+01  6.12515990e+01
  6.12366355e+01  6.12178706e+01  6.11943617e+01  6.11649456e+01
  6.11281940e+01  6.10823643e+01  6.10253474e+01  6.09546157e+01
  6.08671771e+01  6.07595440e+01  6.06277280e+01  6.04672755e+01
  6.02733581e+01  6.00409326e+01  5.97649742e+01  5.94407778e+01
  5.90642998e+01  5.86324996e+01  5.81436233e+01  5.75973798e+01
  5.69949698e+01  5.63389647e+01  5.56330583e+01  5.48817412e+01
  5.40899528e+01  5.32627606e+01  5.24050988e+01  5.15215797e+01
  5.06163783e+01  4.96931763e+01  4.87551541e+01  4.78050131e+01
  4.68450168e+01  4.58770415e+01  4.49026286e+01  4.39230354e+01
  4.29392812e+01  4.19521881e+01  4.09624160e+01  3.99704921e+01
  3.89768354e+01  3.79817769e+01  3.69855751e+01  3.59884296e+01
  3.49904907e+01  3.39918670e+01  3.29926312e+01  3.19928237e+01
  3.09924547e+01  2.99915046e+01  2.89899233e+01  2.79876272e+01
  2.69844954e+01  2.59803632e+01  2.49750136e+01  2.39681670e+01
  2.29594668e+01  2.19484623e+01  2.09345878e+01  1.99171358e+01
  1.88952266e+01  1.78677711e+01  1.68334281e+01  1.57905570e+01
  1.47371658e+01  1.36708591e+01  1.25887893e+01  1.14876201e+01
  1.03635126e+01  9.21214636e+00  8.02879243e+00  6.80845115e+00
  5.54606377e+00  4.23679483e+00  2.87636581e+00  1.46140193e+00
 -1.02604685e-02 -1.53936112e+00 -3.12514028e+00 -4.76541630e+00
 -6.45679997e+00 -8.19500283e+00 -9.97518409e+00 -1.17922838e+01
 -1.36413043e+01 -1.55175211e+01 -1.74166192e+01 -1.93347656e+01
 -2.12686301e+01 -2.32153704e+01 -2.51725954e+01 -2.71383166e+01
 -2.91108956e+01 -3.10889926e+01 -3.30715182e+01 -3.50575912e+01
 -3.70465012e+01 -3.90376777e+01 -4.10306635e+01 -4.30250930e+01
 -4.50206747e+01 -4.70171765e+01 -4.90144142e+01 -5.10122419e+01
 -5.30105449e+01 -5.50092332e+01 -5.70082373e+01 -5.90075044e+01
 -6.10069956e+01 -6.30066839e+01 -6.50065528e+01 -6.70065954e+01
 -6.90068139e+01 -7.10072201e+01 -7.30078358e+01 -7.50086940e+01
 -7.70098407e+01 -7.90113373e+01 -8.10132643e+01 -8.30157255e+01
 -8.50188534e+01 -8.70228172e+01 -8.90278317e+01 -9.10341691e+01
 -9.30421746e+01 -9.50522845e+01 -9.70650505e+01 -9.90811675e+01
 -1.01101508e+02 -1.03127163e+02 -1.05159484e+02 -1.07200129e+02
 -1.09251108e+02 -1.11314814e+02 -1.13394041e+02 -1.15491971e+02
 -1.17612121e+02 -1.19758241e+02 -1.21934144e+02 -1.24143470e+02
 -1.26389400e+02 -1.28674319e+02 -1.30999499e+02 -1.33364844e+02
 -1.35768775e+02]","[ 1.78814469e+02  1.78669861e+02  1.78507628e+02  1.78325628e+02
  1.78121462e+02  1.77892440e+02  1.77635554e+02  1.77347436e+02
  1.77024322e+02  1.76662008e+02  1.76255804e+02  1.75800483e+02
  1.75290237e+02  1.74718622e+02  1.74078513e+02  1.73362062e+02
  1.72560667e+02  1.71664960e+02  1.70664823e+02  1.69549446e+02
  1.68307439e+02  1.66927029e+02  1.65396357e+02  1.63703913e+02
  1.61839124e+02  1.59793128e+02  1.57559727e+02  1.55136504e+02
  1.52526016e+02  1.49736950e+02  1.46785051e+02  1.43693585e+02
  1.40493133e+02  1.37220553e+02  1.33917126e+02  1.30626052e+02
  1.27389656e+02  1.24246727e+02  1.21230373e+02  1.18366664e+02
  1.15674109e+02  1.13163882e+02  1.10840600e+02  1.08703409e+02
  1.06747180e+02  1.04963665e+02  1.03342512e+02  1.01872107e+02
  1.00540224e+02  9.93345169e+01  9.82428514e+01  9.72535355e+01
  9.63554518e+01  9.55381254e+01  9.47917425e+01  9.41071363e+01
  9.34757486e+01  9.28895768e+01  9.23411115e+01  9.18232680e+01
  9.13293155e+01  9.08528037e+01  9.03874904e+01  8.99272677e+01
  8.94660892e+01  8.89978971e+01  8.85165488e+01  8.80157439e+01
  8.74889515e+01  8.69293360e+01  8.63296860e+01  8.56823426e+01
  8.49791334e+01  8.42113119e+01  8.33695087e+01  8.24436997e+01
  8.14232005e+01  8.02966990e+01  7.90523415e+01  7.76778925e+01
  7.61609926e+01  7.44895412e+01  7.26522312e+01  7.06392610e+01
  6.84432313e+01  6.60602112e+01  6.34909183e+01  6.07419007e+01
  5.78265510e+01  5.47657329e+01  5.15877931e+01  4.83277807e+01
  4.50258245e+01  4.17247938e+01  3.84675476e+01  3.52941862e+01
  3.22397210e+01  2.93324627e+01  2.65932532e+01  2.40354874e+01
  2.16657486e+01  1.94848273e+01  1.74889063e+01  1.56707416e+01
  1.40207297e+01  1.25278048e+01  1.11801513e+01  9.96574039e+00
  8.87271566e+00  7.88965387e+00  7.00572946e+00  6.21080618e+00
  5.49547612e+00  4.85106167e+00  4.26959246e+00  3.74376609e+00
  3.26689916e+00  2.83287281e+00  2.43607614e+00  2.07134924e+00
  1.73392721e+00  1.41938586e+00  1.12358934e+00  8.42639785e-01
  5.72828841e-01  3.10590844e-01  5.24572379e-02 -2.04988093e-01
 -4.65153047e-01 -7.31481512e-01 -1.00749803e+00 -1.29685335e+00
 -1.60337137e+00 -1.93109782e+00 -2.28435098e+00 -2.66777487e+00
 -3.08639465e+00 -3.54567426e+00 -4.05157531e+00 -4.61061595e+00
 -5.22992678e+00 -5.91729974e+00 -6.68122304e+00 -7.53089220e+00
 -8.47618337e+00 -9.52757042e+00 -1.06959634e+01 -1.19924430e+01
 -1.34278674e+01 -1.50123308e+01 -1.67544686e+01 -1.86606185e+01
 -2.07338758e+01 -2.29731168e+01 -2.53721059e+01 -2.79188574e+01
 -3.05954606e+01 -3.33785865e+01 -3.62408376e+01 -3.91529619e+01
 -4.20867402e+01]",398107.17055349407,45.0258245404845,61.308023604592414,50.0u,10.0m,1.0u,1.4,1.0,2.0m,0.0u,0.001u,0.001u,0.25u,0.5u,1000.0,Best
2,1205.7710162232954u,3.032859390350214u,7.554208840548477u,10.323232323232324,501.1872336272709,45.0258245404845,2.1800393409873564,-2.886470776027816,24.4,1.2000000000000028,34.16,0.54u,0.36u,"[1.00000000e+01 1.12201845e+01 1.25892541e+01 1.41253754e+01
 1.58489319e+01 1.77827941e+01 1.99526231e+01 2.23872114e+01
 2.51188643e+01 2.81838293e+01 3.16227766e+01 3.54813389e+01
 3.98107171e+01 4.46683592e+01 5.01187234e+01 5.62341325e+01
 6.30957344e+01 7.07945784e+01 7.94328235e+01 8.91250938e+01
 1.00000000e+02 1.12201845e+02 1.25892541e+02 1.41253754e+02
 1.58489319e+02 1.77827941e+02 1.99526231e+02 2.23872114e+02
 2.51188643e+02 2.81838293e+02 3.16227766e+02 3.54813389e+02
 3.98107171e+02 4.46683592e+02 5.01187234e+02 5.62341325e+02
 6.30957344e+02 7.07945784e+02 7.94328235e+02 8.91250938e+02
 1.00000000e+03 1.12201845e+03 1.25892541e+03 1.41253754e+03
 1.58489319e+03 1.77827941e+03 1.99526231e+03 2.23872114e+03
 2.51188643e+03 2.81838293e+03 3.16227766e+03 3.54813389e+03
 3.98107171e+03 4.46683592e+03 5.01187234e+03 5.62341325e+03
 6.30957344e+03 7.07945784e+03 7.94328235e+03 8.91250938e+03
 1.00000000e+04 1.12201845e+04 1.25892541e+04 1.41253754e+04
 1.58489319e+04 1.77827941e+04 1.99526231e+04 2.23872114e+04
 2.51188643e+04 2.81838293e+04 3.16227766e+04 3.54813389e+04
 3.98107171e+04 4.46683592e+04 5.01187234e+04 5.62341325e+04
 6.30957344e+04 7.07945784e+04 7.94328235e+04 8.91250938e+04
 1.00000000e+05 1.12201845e+05 1.25892541e+05 1.41253754e+05
 1.58489319e+05 1.77827941e+05 1.99526231e+05 2.23872114e+05
 2.51188643e+05 2.81838293e+05 3.16227766e+05 3.54813389e+05
 3.98107171e+05 4.46683592e+05 5.01187234e+05 5.62341325e+05
 6.30957344e+05 7.07945784e+05 7.94328235e+05 8.91250938e+05
 1.00000000e+06 1.12201845e+06 1.25892541e+06 1.41253754e+06
 1.58489319e+06 1.77827941e+06 1.99526231e+06 2.23872114e+06
 2.51188643e+06 2.81838293e+06 3.16227766e+06 3.54813389e+06
 3.98107171e+06 4.46683592e+06 5.01187234e+06 5.62341325e+06
 6.30957344e+06 7.07945784e+06 7.94328235e+06 8.91250938e+06
 1.00000000e+07 1.12201845e+07 1.25892541e+07 1.41253754e+07
 1.58489319e+07 1.77827941e+07 1.99526231e+07 2.23872114e+07
 2.51188643e+07 2.81838293e+07 3.16227766e+07 3.54813389e+07
 3.98107171e+07 4.46683592e+07 5.01187234e+07 5.62341325e+07
 6.30957344e+07 7.07945784e+07 7.94328235e+07 8.91250938e+07
 1.00000000e+08 1.12201845e+08 1.25892541e+08 1.41253754e+08
 1.58489319e+08 1.77827941e+08 1.99526231e+08 2.23872114e+08
 2.51188643e+08 2.81838293e+08 3.16227766e+08 3.54813389e+08
 3.98107171e+08 4.46683592e+08 5.01187234e+08 5.62341325e+08
 6.30957344e+08 7.07945784e+08 7.94328235e+08 8.91250938e+08
 1.00000000e+09]","[ 6.13080236e+01  6.13075434e+01  6.13069390e+01  6.13061782e+01
  6.13052206e+01  6.13040153e+01  6.13024984e+01  6.13005896e+01
  6.12981877e+01  6.12951657e+01  6.12913643e+01  6.12865833e+01
  6.12805718e+01  6.12730157e+01  6.12635217e+01  6.12515990e+01
  6.12366355e+01  6.12178706e+01  6.11943617e+01  6.11649456e+01
  6.11281940e+01  6.10823643e+01  6.10253474e+01  6.09546157e+01
  6.08671771e+01  6.07595440e+01  6.06277280e+01  6.04672755e+01
  6.02733581e+01  6.00409326e+01  5.97649742e+01  5.94407778e+01
  5.90642998e+01  5.86324996e+01  5.81436233e+01  5.75973798e+01
  5.69949698e+01  5.63389647e+01  5.56330583e+01  5.48817412e+01
  5.40899528e+01  5.32627606e+01  5.24050988e+01  5.15215797e+01
  5.06163783e+01  4.96931763e+01  4.87551541e+01  4.78050131e+01
  4.68450168e+01  4.58770415e+01  4.49026286e+01  4.39230354e+01
  4.29392812e+01  4.19521881e+01  4.09624160e+01  3.99704921e+01
  3.89768354e+01  3.79817769e+01  3.69855751e+01  3.59884296e+01
  3.49904907e+01  3.39918670e+01  3.29926312e+01  3.19928237e+01
