,freq,mag_db,phase_deg,fp1_sim,f0db_sim,phase_margin_sim,loop_gain_error,fp1_error,loop_gain,ibias,Iload,Wdiff,Wpass,Cload,Wload,Vin,Vout,l1,l2,iload_min,tdelay,trise,tfall,ton,tperiod,ncycles,Iq_sim,Best_or_default
0,"[1.00000000e+01 1.12201845e+01 1.25892541e+01 1.41253754e+01
 1.58489319e+01 1.77827941e+01 1.99526231e+01 2.23872114e+01
 2.51188643e+01 2.81838293e+01 3.16227766e+01 3.54813389e+01
 3.98107171e+01 4.46683592e+01 5.01187234e+01 5.62341325e+01
 6.30957344e+01 7.07945784e+01 7.94328235e+01 8.91250938e+01
 1.00000000e+02 1.12201845e+02 1.25892541e+02 1.41253754e+02
 1.58489319e+02 1.77827941e+02 1.99526231e+02 2.23872114e+02
 2.51188643e+02 2.81838293e+02 3.16227766e+02 3.54813389e+02
 3.98107171e+02 4.46683592e+02 5.01187234e+02 5.62341325e+02
 6.30957344e+02 7.07945784e+02 7.94328235e+02 8.91250938e+02
 1.00000000e+03 1.12201845e+03 1.25892541e+03 1.41253754e+03
 1.58489319e+03 1.77827941e+03 1.99526231e+03 2.23872114e+03
 2.51188643e+03 2.81838293e+03 3.16227766e+03 3.54813389e+03
 3.98107171e+03 4.46683592e+03 5.01187234e+03 5.62341325e+03
 6.30957344e+03 7.07945784e+03 7.94328235e+03 8.91250938e+03
 1.00000000e+04 1.12201845e+04 1.25892541e+04 1.41253754e+04
 1.58489319e+04 1.77827941e+04 1.99526231e+04 2.23872114e+04
 2.51188643e+04 2.81838293e+04 3.16227766e+04 3.54813389e+04
 3.98107171e+04 4.46683592e+04 5.01187234e+04 5.62341325e+04
 6.30957344e+04 7.07945784e+04 7.94328235e+04 8.91250938e+04
 1.00000000e+05 1.12201845e+05 1.25892541e+05 1.41253754e+05
 1.58489319e+05 1.77827941e+05 1.99526231e+05 2.23872114e+05
 2.51188643e+05 2.81838293e+05 3.16227766e+05 3.54813389e+05
 3.98107171e+05 4.46683592e+05 5.01187234e+05 5.62341325e+05
 6.30957344e+05 7.07945784e+05 7.94328235e+05 8.91250938e+05
 1.00000000e+06 1.12201845e+06 1.25892541e+06 1.41253754e+06
 1.58489319e+06 1.77827941e+06 1.99526231e+06 2.23872114e+06
 2.51188643e+06 2.81838293e+06 3.16227766e+06 3.54813389e+06
 3.98107171e+06 4.46683592e+06 5.01187234e+06 5.62341325e+06
 6.30957344e+06 7.07945784e+06 7.94328235e+06 8.91250938e+06
 1.00000000e+07 1.12201845e+07 1.25892541e+07 1.41253754e+07
 1.58489319e+07 1.77827941e+07 1.99526231e+07 2.23872114e+07
 2.51188643e+07 2.81838293e+07 3.16227766e+07 3.54813389e+07
 3.98107171e+07 4.46683592e+07 5.01187234e+07 5.62341325e+07
 6.30957344e+07 7.07945784e+07 7.94328235e+07 8.91250938e+07
 1.00000000e+08 1.12201845e+08 1.25892541e+08 1.41253754e+08
 1.58489319e+08 1.77827941e+08 1.99526231e+08 2.23872114e+08
 2.51188643e+08 2.81838293e+08 3.16227766e+08 3.54813389e+08
 3.98107171e+08 4.46683592e+08 5.01187234e+08 5.62341325e+08
 6.30957344e+08 7.07945784e+08 7.94328235e+08 8.91250938e+08
 1.00000000e+09]","[  56.77338191   56.77297936   56.77247262   56.77183477   56.77103188
   56.77002133   56.76874944   56.76714877   56.76513447   56.76259996
   56.75941129   56.75540032   56.75035608   56.74401407   56.7360431
   56.726029     56.71345473   56.69767627   56.67789352   56.65311597
   56.62212255   56.58341604   56.53517288   56.47519055   56.4008365
   56.3090048    56.19608992   56.05798969   55.89015223   55.68768196
   55.44551624   55.15867615   54.82257982   54.4333889    53.9883414
   53.48601502   52.92647054   52.31124552   51.64319982   50.92624453
   50.165006     49.3644805    48.52972502   47.66561239   46.77666047
   45.86693147   44.93998908   43.9988983    43.04625344   42.08422226
   41.11459728   40.13884815   39.15817139   38.17353528   37.18571926
   36.19534751   35.20291712   34.20882125   33.21336804   32.21679567
   31.21928417   30.22096456   29.2219254    28.2222174    27.22185597
   26.22082204   25.21906105   24.21648018   23.21294361   22.2082656
   21.20220119   20.19443404   19.18456094   18.17207253   17.15632965
   16.13653455   15.11169676   14.0805931    13.04172219   11.99325429
   10.9329789     9.85825378    8.76596212    7.65248686    6.51371469
    5.34508427    4.14169392    2.89848019    1.61047039    0.27309721
   -1.11745449   -2.56391587   -4.06767322   -5.62862806   -7.24520722
   -8.91452078  -10.63263543  -12.39491125  -14.19634672  -16.03188649
  -17.8966645   -19.78617291  -21.69636115  -23.62367751  -25.56506842
  -27.51794982  -29.48016278  -31.44992197  -33.42576326  -35.40649402
  -37.39114814  -39.37894672  -41.36926438  -43.36160098  -45.35555825
  -47.35082062  -49.34713973  -51.34432205  -53.34221909  -55.34071983
  -57.33974503  -59.33924312  -61.33918754  -63.33957535  -65.34042709
  -67.34178782  -69.34372952  -71.34635473  -73.34980191  -75.35425246
  -77.35993996  -79.36716182  -81.37629399  -83.38780909  -85.40229867
  -87.42050005  -89.44332828  -91.47191341  -93.50764273  -95.55220667
  -97.6076458   -99.67639376 -101.76130829 -103.86567833 -105.9931917
 -108.14784495 -110.3337775  -112.55501905 -114.81515298 -117.11691993
 -119.4618097  -121.84970797 -124.2786692  -126.74487261 -129.24278768
 -131.76553741 -134.30541246 -136.85446455 -139.40509382 -141.95054124
 -144.48520304]","[ 1.78914307e+02  1.78781870e+02  1.78633288e+02  1.78466599e+02
  1.78279602e+02  1.78069831e+02  1.77834526e+02  1.77570596e+02
  1.77274585e+02  1.76942628e+02  1.76570410e+02  1.76153121e+02
  1.75685400e+02  1.75161293e+02  1.74574201e+02  1.73916831e+02
  1.73181158e+02  1.72358399e+02  1.71439008e+02  1.70412694e+02
  1.69268495e+02  1.67994909e+02  1.66580107e+02  1.65012265e+02
  1.63280026e+02  1.61373137e+02  1.59283263e+02  1.57004979e+02
  1.54536915e+02  1.51882958e+02  1.49053365e+02  1.46065612e+02
  1.42944712e+02  1.39722826e+02  1.36438027e+02  1.33132271e+02
  1.29848789e+02  1.26629283e+02  1.23511357e+02  1.20526538e+02
  1.17699116e+02  1.15045808e+02  1.12576135e+02  1.10293289e+02
  1.08195265e+02  1.06276054e+02  1.04526775e+02  1.02936651e+02
  1.01493800e+02  1.00185854e+02  9.90003996e+01  9.79252917e+01
  9.69488517e+01  9.60599835e+01  9.52482263e+01  9.45037631e+01
  9.38173972e+01  9.31805083e+01  9.25849939e+01  9.20232027e+01
  9.14878619e+01  9.09720030e+01  9.04688846e+01  8.99719156e+01
  8.94745779e+01  8.89703490e+01  8.84526245e+01  8.79146410e+01
  8.73493990e+01  8.67495861e+01  8.61075028e+01  8.54149901e+01
  8.46633637e+01  8.38433568e+01  8.29450771e+01  8.19579871e+01
  8.08709156e+01  7.96721167e+01  7.83493928e+01  7.68903046e+01
  7.52824936e+01  7.35141459e+01  7.15746224e+01  6.94552730e+01
  6.71504315e+01  6.46585546e+01  6.19834203e+01  5.91352388e+01
  5.61314794e+01  5.29971787e+01  4.97645244e+01  4.64715994e+01
  4.31603301e+01  3.98738696e+01  3.66537937e+01  3.35375394e+01
  3.05564479e+01  2.77346206e+01  2.50886074e+01  2.26277969e+01
  2.03552932e+01  1.82690510e+01  1.63630739e+01  1.46285398e+01
  1.30547756e+01  1.16300487e+01  1.03421768e+01  9.17897463e+00
  8.12856300e+00  7.17956968e+00  6.32124692e+00  5.54352752e+00
  4.83703712e+00  4.19307591e+00  3.60358014e+00  3.06107058e+00
  2.55859322e+00  2.08965562e+00  1.64816144e+00  1.22834451e+00
  8.24703223e-01  4.31935821e-01  4.48765214e-02 -3.41567514e-01
 -7.32478578e-01 -1.13299039e+00 -1.54834980e+00 -1.98397832e+00
 -2.44553331e+00 -2.93896833e+00 -3.47059188e+00 -4.04712272e+00
 -4.67573959e+00 -5.36412119e+00 -6.12047119e+00 -6.95352016e+00
 -7.87249352e+00 -8.88703061e+00 -1.00070354e+01 -1.12424344e+01
 -1.26028122e+01 -1.40968941e+01 -1.57318464e+01 -1.75123795e+01
 -1.94396666e+01 -2.15101385e+01 -2.37142837e+01 -2.60356604e+01
 -2.84503923e+01 -3.09274349e+01 -3.34298357e+01 -3.59170528e+01
 -3.83481747e+01 -4.06856569e+01 -4.28990345e+01 -4.49680352e+01
 -4.68845896e+01 -4.86533984e+01 -5.02908990e+01 -5.18226840e+01
 -5.32796275e+01]",501.1872336272709,281838.2931264432,52.99717870014888,5.3776968097736,1.855371329826497,56.77338191413584,50.0u,10.0m,3.861823542677526u,1133.1343651728623u,1.0u,11.432354891047549u,1.4,1.0,0.72u,0.54u,2.0m,0.0u,0.001u,0.001u,0.25u,0.5u,1000.0,24.0,Default
1,"[1.00000000e+01 1.12201845e+01 1.25892541e+01 1.41253754e+01
 1.58489319e+01 1.77827941e+01 1.99526231e+01 2.23872114e+01
 2.51188643e+01 2.81838293e+01 3.16227766e+01 3.54813389e+01
 3.98107171e+01 4.46683592e+01 5.01187234e+01 5.62341325e+01
 6.30957344e+01 7.07945784e+01 7.94328235e+01 8.91250938e+01
 1.00000000e+02 1.12201845e+02 1.25892541e+02 1.41253754e+02
 1.58489319e+02 1.77827941e+02 1.99526231e+02 2.23872114e+02
 2.51188643e+02 2.81838293e+02 3.16227766e+02 3.54813389e+02
 3.98107171e+02 4.46683592e+02 5.01187234e+02 5.62341325e+02
 6.30957344e+02 7.07945784e+02 7.94328235e+02 8.91250938e+02
 1.00000000e+03 1.12201845e+03 1.25892541e+03 1.41253754e+03
 1.58489319e+03 1.77827941e+03 1.99526231e+03 2.23872114e+03
 2.51188643e+03 2.81838293e+03 3.16227766e+03 3.54813389e+03
 3.98107171e+03 4.46683592e+03 5.01187234e+03 5.62341325e+03
 6.30957344e+03 7.07945784e+03 7.94328235e+03 8.91250938e+03
 1.00000000e+04 1.12201845e+04 1.25892541e+04 1.41253754e+04
 1.58489319e+04 1.77827941e+04 1.99526231e+04 2.23872114e+04
 2.51188643e+04 2.81838293e+04 3.16227766e+04 3.54813389e+04
 3.98107171e+04 4.46683592e+04 5.01187234e+04 5.62341325e+04
 6.30957344e+04 7.07945784e+04 7.94328235e+04 8.91250938e+04
 1.00000000e+05 1.12201845e+05 1.25892541e+05 1.41253754e+05
 1.58489319e+05 1.77827941e+05 1.99526231e+05 2.23872114e+05
 2.51188643e+05 2.81838293e+05 3.16227766e+05 3.54813389e+05
 3.98107171e+05 4.46683592e+05 5.01187234e+05 5.62341325e+05
 6.30957344e+05 7.07945784e+05 7.94328235e+05 8.91250938e+05
 1.00000000e+06 1.12201845e+06 1.25892541e+06 1.41253754e+06
 1.58489319e+06 1.77827941e+06 1.99526231e+06 2.23872114e+06
 2.51188643e+06 2.81838293e+06 3.16227766e+06 3.54813389e+06
 3.98107171e+06 4.46683592e+06 5.01187234e+06 5.62341325e+06
 6.30957344e+06 7.07945784e+06 7.94328235e+06 8.91250938e+06
 1.00000000e+07 1.12201845e+07 1.25892541e+07 1.41253754e+07
 1.58489319e+07 1.77827941e+07 1.99526231e+07 2.23872114e+07
 2.51188643e+07 2.81838293e+07 3.16227766e+07 3.54813389e+07
 3.98107171e+07 4.46683592e+07 5.01187234e+07 5.62341325e+07
 6.30957344e+07 7.07945784e+07 7.94328235e+07 8.91250938e+07
 1.00000000e+08 1.12201845e+08 1.25892541e+08 1.41253754e+08
 1.58489319e+08 1.77827941e+08 1.99526231e+08 2.23872114e+08
 2.51188643e+08 2.81838293e+08 3.16227766e+08 3.54813389e+08
 3.98107171e+08 4.46683592e+08 5.01187234e+08 5.62341325e+08
 6.30957344e+08 7.07945784e+08 7.94328235e+08 8.91250938e+08
 1.00000000e+09]","[  56.77338191   56.77297936   56.77247262   56.77183477   56.77103188
   56.77002133   56.76874944   56.76714877   56.76513447   56.76259996
   56.75941129   56.75540032   56.75035608   56.74401407   56.7360431
   56.726029     56.71345473   56.69767627   56.67789352   56.65311597
   56.62212255   56.58341604   56.53517288   56.47519055   56.4008365
   56.3090048    56.19608992   56.05798969   55.89015223   55.68768196
   55.44551624   55.15867615   54.82257982   54.4333889    53.9883414
   53.48601502   52.92647054   52.31124552   51.64319982   50.92624453
   50.165006     49.3644805    48.52972502   47.66561239   46.77666047
   45.86693147   44.93998908   43.9988983    43.04625344   42.08422226
   41.11459728   40.13884815   39.15817139   38.17353528   37.18571926
   36.19534751   35.20291712   34.20882125   33.21336804   32.21679567
   31.21928417   30.22096456   29.2219254    28.2222174    27.22185597
   26.22082204   25.21906105   24.21648018   23.21294361   22.2082656
   21.20220119   20.19443404   19.18456094   18.17207253   17.15632965
   16.13653455   15.11169676   14.0805931    13.04172219   11.99325429
   10.9329789     9.85825378    8.76596212    7.65248686    6.51371469
    5.34508427    4.14169392    2.89848019    1.61047039    0.27309721
   -1.11745449   -2.56391587   -4.06767322   -5.62862806   -7.24520722
   -8.91452078  -10.63263543  -12.39491125  -14.19634672  -16.03188649
  -17.8966645   -19.78617291  -21.69636115  -23.62367751  -25.56506842
  -27.51794982  -29.48016278  -31.44992197  -33.42576326  -35.40649402
  -37.39114814  -39.37894672  -41.36926438  -43.36160098  -45.35555825
  -47.35082062  -49.34713973  -51.34432205  -53.34221909  -55.34071983
  -57.33974503  -59.33924312  -61.33918754  -63.33957535  -65.34042709
  -67.34178782  -69.34372952  -71.34635473  -73.34980191  -75.35425246
  -77.35993996  -79.36716182  -81.37629399  -83.38780909  -85.40229867
  -87.42050005  -89.44332828  -91.47191341  -93.50764273  -95.55220667
  -97.6076458   -99.67639376 -101.76130829 -103.86567833 -105.9931917
 -108.14784495 -110.3337775  -112.55501905 -114.81515298 -117.11691993
 -119.4618097  -121.84970797 -124.2786692  -126.74487261 -129.24278768
 -131.76553741 -134.30541246 -136.85446455 -139.40509382 -141.95054124
 -144.48520304]","[ 1.78914307e+02  1.78781870e+02  1.78633288e+02  1.78466599e+02
  1.78279602e+02  1.78069831e+02  1.77834526e+02  1.77570596e+02
  1.77274585e+02  1.76942628e+02  1.76570410e+02  1.76153121e+02
  1.75685400e+02  1.75161293e+02  1.74574201e+02  1.73916831e+02
  1.73181158e+02  1.72358399e+02  1.71439008e+02  1.70412694e+02
  1.69268495e+02  1.67994909e+02  1.66580107e+02  1.65012265e+02
  1.63280026e+02  1.61373137e+02  1.59283263e+02  1.57004979e+02
  1.54536915e+02  1.51882958e+02  1.49053365e+02  1.46065612e+02
  1.42944712e+02  1.39722826e+02  1.36438027e+02  1.33132271e+02
  1.29848789e+02  1.26629283e+02  1.23511357e+02  1.20526538e+02
  1.17699116e+02  1.15045808e+02  1.12576135e+02  1.10293289e+02
  1.08195265e+02  1.06276054e+02  1.04526775e+02  1.02936651e+02
  1.01493800e+02  1.00185854e+02  9.90003996e+01  9.79252917e+01
  9.69488517e+01  9.60599835e+01  9.52482263e+01  9.45037631e+01
  9.38173972e+01  9.31805083e+01  9.25849939e+01  9.20232027e+01
  9.14878619e+01  9.09720030e+01  9.04688846e+01  8.99719156e+01
  8.94745779e+01  8.89703490e+01  8.84526245e+01  8.79146410e+01
  8.73493990e+01  8.67495861e+01  8.61075028e+01  8.54149901e+01
  8.46633637e+01  8.38433568e+01  8.29450771e+01  8.19579871e+01
  8.08709156e+01  7.96721167e+01  7.83493928e+01  7.68903046e+01
  7.52824936e+01  7.35141459e+01  7.15746224e+01  6.94552730e+01
  6.71504315e+01  6.46585546e+01  6.19834203e+01  5.91352388e+01
  5.61314794e+01  5.29971787e+01  4.97645244e+01  4.64715994e+01
  4.31603301e+01  3.98738696e+01  3.66537937e+01  3.35375394e+01
  3.05564479e+01  2.77346206e+01  2.50886074e+01  2.26277969e+01
  2.03552932e+01  1.82690510e+01  1.63630739e+01  1.46285398e+01
  1.30547756e+01  1.16300487e+01  1.03421768e+01  9.17897463e+00
  8.12856300e+00  7.17956968e+00  6.32124692e+00  5.54352752e+00
  4.83703712e+00  4.19307591e+00  3.60358014e+00  3.06107058e+00
  2.55859322e+00  2.08965562e+00  1.64816144e+00  1.22834451e+00
  8.24703223e-01  4.31935821e-01  4.48765214e-02 -3.41567514e-01
 -7.32478578e-01 -1.13299039e+00 -1.54834980e+00 -1.98397832e+00
 -2.44553331e+00 -2.93896833e+00 -3.47059188e+00 -4.04712272e+00
 -4.67573959e+00 -5.36412119e+00 -6.12047119e+00 -6.95352016e+00
 -7.87249352e+00 -8.88703061e+00 -1.00070354e+01 -1.12424344e+01
 -1.26028122e+01 -1.40968941e+01 -1.57318464e+01 -1.75123795e+01
 -1.94396666e+01 -2.15101385e+01 -2.37142837e+01 -2.60356604e+01
 -2.84503923e+01 -3.09274349e+01 -3.34298357e+01 -3.59170528e+01
 -3.83481747e+01 -4.06856569e+01 -4.28990345e+01 -4.49680352e+01
 -4.68845896e+01 -4.86533984e+01 -5.02908990e+01 -5.18226840e+01
 -5.32796275e+01]",501.1872336272709,281838.2931264432,52.99717870014888,5.3776968097736,1.855371329826497,56.77338191413584,50.0u,10.0m,3.861823542677526u,1133.1343651728623u,1.0u,11.432354891047549u,1.4,1.0,0.72u,0.54u,2.0m,0.0u,0.001u,0.001u,0.25u,0.5u,1000.0,24.0,Default
2,"[1.00000000e+01 1.12201845e+01 1.25892541e+01 1.41253754e+01
 1.58489319e+01 1.77827941e+01 1.99526231e+01 2.23872114e+01
 2.51188643e+01 2.81838293e+01 3.16227766e+01 3.54813389e+01
 3.98107171e+01 4.46683592e+01 5.01187234e+01 5.62341325e+01
 6.30957344e+01 7.07945784e+01 7.94328235e+01 8.91250938e+01
 1.00000000e+02 1.12201845e+02 1.25892541e+02 1.41253754e+02
 1.58489319e+02 1.77827941e+02 1.99526231e+02 2.23872114e+02
 2.51188643e+02 2.81838293e+02 3.16227766e+02 3.54813389e+02
 3.98107171e+02 4.46683592e+02 5.01187234e+02 5.62341325e+02
 6.30957344e+02 7.07945784e+02 7.94328235e+02 8.91250938e+02
 1.00000000e+03 1.12201845e+03 1.25892541e+03 1.41253754e+03
 1.58489319e+03 1.77827941e+03 1.99526231e+03 2.23872114e+03
 2.51188643e+03 2.81838293e+03 3.16227766e+03 3.54813389e+03
 3.98107171e+03 4.46683592e+03 5.01187234e+03 5.62341325e+03
 6.30957344e+03 7.07945784e+03 7.94328235e+03 8.91250938e+03
 1.00000000e+04 1.12201845e+04 1.25892541e+04 1.41253754e+04
 1.58489319e+04 1.77827941e+04 1.99526231e+04 2.23872114e+04
 2.51188643e+04 2.81838293e+04 3.16227766e+04 3.54813389e+04
 3.98107171e+04 4.46683592e+04 5.01187234e+04 5.62341325e+04
 6.30957344e+04 7.07945784e+04 7.94328235e+04 8.91250938e+04
 1.00000000e+05 1.12201845e+05 1.25892541e+05 1.41253754e+05
 1.58489319e+05 1.77827941e+05 1.99526231e+05 2.23872114e+05
 2.51188643e+05 2.81838293e+05 3.16227766e+05 3.54813389e+05
 3.98107171e+05 4.46683592e+05 5.01187234e+05 5.62341325e+05
 6.30957344e+05 7.07945784e+05 7.94328235e+05 8.91250938e+05
 1.00000000e+06 1.12201845e+06 1.25892541e+06 1.41253754e+06
 1.58489319e+06 1.77827941e+06 1.99526231e+06 2.23872114e+06
 2.51188643e+06 2.81838293e+06 3.16227766e+06 3.54813389e+06
 3.98107171e+06 4.46683592e+06 5.01187234e+06 5.62341325e+06
 6.30957344e+06 7.07945784e+06 7.94328235e+06 8.91250938e+06
 1.00000000e+07 1.12201845e+07 1.25892541e+07 1.41253754e+07
 1.58489319e+07 1.77827941e+07 1.99526231e+07 2.23872114e+07
 2.51188643e+07 2.81838293e+07 3.16227766e+07 3.54813389e+07
 3.98107171e+07 4.46683592e+07 5.01187234e+07 5.62341325e+07
 6.30957344e+07 7.07945784e+07 7.94328235e+07 8.91250938e+07
 1.00000000e+08 1.12201845e+08 1.25892541e+08 1.41253754e+08
 1.58489319e+08 1.77827941e+08 1.99526231e+08 2.23872114e+08
 2.51188643e+08 2.81838293e+08 3.16227766e+08 3.54813389e+08
 3.98107171e+08 4.46683592e+08 5.01187234e+08 5.62341325e+08
 6.30957344e+08 7.07945784e+08 7.94328235e+08 8.91250938e+08
 1.00000000e+09]","[  56.77338191   56.77297936   56.77247262   56.77183477   56.77103188
   56.77002133   56.76874944   56.76714877   56.76513447   56.76259996
   56.75941129   56.75540032   56.75035608   56.74401407   56.7360431
   56.726029     56.71345473   56.69767627   56.67789352   56.65311597
   56.62212255   56.58341604   56.53517288   56.47519055   56.4008365
   56.3090048    56.19608992   56.05798969   55.89015223   55.68768196
   55.44551624   55.15867615   54.82257982   54.4333889    53.9883414
   53.48601502   52.92647054   52.31124552   51.64319982   50.92624453
   50.165006     49.3644805    48.52972502   47.66561239   46.77666047
   45.86693147   44.93998908   43.9988983    43.04625344   42.08422226
   41.11459728   40.13884815   39.15817139   38.17353528   37.18571926
   36.19534751   35.20291712   34.20882125   33.21336804   32.21679567
   31.21928417   30.22096456   29.2219254    28.2222174    27.22185597
   26.22082204   25.21906105   24.21648018   23.21294361   22.2082656
   21.20220119   20.19443404   19.18456094   18.17207253   17.15632965
   16.13653455   15.11169676   14.0805931    13.04172219   11.99325429
   10.9329789     9.85825378    8.76596212    7.65248686    6.51371469
    5.34508427    4.14169392    2.89848019    1.61047039    0.27309721
   -1.11745449   -2.56391587   -4.06767322   -5.62862806   -7.24520722
   -8.91452078  -10.63263543  -12.39491125  -14.19634672  -16.03188649
  -17.8966645   -19.78617291  -21.69636115  -23.62367751  -25.56506842
  -27.51794982  -29.48016278  -31.44992197  -33.42576326  -35.40649402
  -37.39114814  -39.37894672  -41.36926438  -43.36160098  -45.35555825
  -47.35082062  -49.34713973  -51.34432205  -53.34221909  -55.34071983
  -57.33974503  -59.33924312  -61.33918754  -63.33957535  -65.34042709
  -67.34178782  -69.34372952  -71.34635473  -73.34980191  -75.35425246
  -77.35993996  -79.36716182  -81.37629399  -83.38780909  -85.40229867
  -87.42050005  -89.44332828  -91.47191341  -93.50764273  -95.55220667
  -97.6076458   -99.67639376 -101.76130829 -103.86567833 -105.9931917
