,Wpass,Wdiff,Wload,gm_id,fp1_sim,phase_margin,loop_gain_error,fp1_error,l1,l2,Cc,Cload,Iq_sim,Iq_error,Power,freq,mag_db,phase_deg,f0db_sim,phase_margin_sim,loop_gain,ibias,Iload,Vin,Vout,iload_min,tdelay,trise,tfall,ton,tperiod,ncycles,Best_or_default
0,600.8020892921824u,0.32712894007182364u,0.8022373012367914u,17.527054108216433,446.68359215096194,46.07148055470179,3.21288688990388,30.808820843991203,1.26u,0.72u,5.99831199946929e-07u,0.002u,0.235,3.0000000000000027,0.188,"[1.00000000e+01 1.12201845e+01 1.25892541e+01 1.41253754e+01
 1.58489319e+01 1.77827941e+01 1.99526231e+01 2.23872114e+01
 2.51188643e+01 2.81838293e+01 3.16227766e+01 3.54813389e+01
 3.98107171e+01 4.46683592e+01 5.01187234e+01 5.62341325e+01
 6.30957344e+01 7.07945784e+01 7.94328235e+01 8.91250938e+01
 1.00000000e+02 1.12201845e+02 1.25892541e+02 1.41253754e+02
 1.58489319e+02 1.77827941e+02 1.99526231e+02 2.23872114e+02
 2.51188643e+02 2.81838293e+02 3.16227766e+02 3.54813389e+02
 3.98107171e+02 4.46683592e+02 5.01187234e+02 5.62341325e+02
 6.30957344e+02 7.07945784e+02 7.94328235e+02 8.91250938e+02
 1.00000000e+03 1.12201845e+03 1.25892541e+03 1.41253754e+03
 1.58489319e+03 1.77827941e+03 1.99526231e+03 2.23872114e+03
 2.51188643e+03 2.81838293e+03 3.16227766e+03 3.54813389e+03
 3.98107171e+03 4.46683592e+03 5.01187234e+03 5.62341325e+03
 6.30957344e+03 7.07945784e+03 7.94328235e+03 8.91250938e+03
 1.00000000e+04 1.12201845e+04 1.25892541e+04 1.41253754e+04
 1.58489319e+04 1.77827941e+04 1.99526231e+04 2.23872114e+04
 2.51188643e+04 2.81838293e+04 3.16227766e+04 3.54813389e+04
 3.98107171e+04 4.46683592e+04 5.01187234e+04 5.62341325e+04
 6.30957344e+04 7.07945784e+04 7.94328235e+04 8.91250938e+04
 1.00000000e+05 1.12201845e+05 1.25892541e+05 1.41253754e+05
 1.58489319e+05 1.77827941e+05 1.99526231e+05 2.23872114e+05
 2.51188643e+05 2.81838293e+05 3.16227766e+05 3.54813389e+05
 3.98107171e+05 4.46683592e+05 5.01187234e+05 5.62341325e+05
 6.30957344e+05 7.07945784e+05 7.94328235e+05 8.91250938e+05
 1.00000000e+06 1.12201845e+06 1.25892541e+06 1.41253754e+06
 1.58489319e+06 1.77827941e+06 1.99526231e+06 2.23872114e+06
 2.51188643e+06 2.81838293e+06 3.16227766e+06 3.54813389e+06
 3.98107171e+06 4.46683592e+06 5.01187234e+06 5.62341325e+06
 6.30957344e+06 7.07945784e+06 7.94328235e+06 8.91250938e+06
 1.00000000e+07 1.12201845e+07 1.25892541e+07 1.41253754e+07
 1.58489319e+07 1.77827941e+07 1.99526231e+07 2.23872114e+07
 2.51188643e+07 2.81838293e+07 3.16227766e+07 3.54813389e+07
 3.98107171e+07 4.46683592e+07 5.01187234e+07 5.62341325e+07
 6.30957344e+07 7.07945784e+07 7.94328235e+07 8.91250938e+07
 1.00000000e+08 1.12201845e+08 1.25892541e+08 1.41253754e+08
 1.58489319e+08 1.77827941e+08 1.99526231e+08 2.23872114e+08
 2.51188643e+08 2.81838293e+08 3.16227766e+08 3.54813389e+08
 3.98107171e+08 4.46683592e+08 5.01187234e+08 5.62341325e+08
 6.30957344e+08 7.07945784e+08 7.94328235e+08 8.91250938e+08
 1.00000000e+09]","[  61.92773213   61.92719506   61.92651902   61.92566809   61.92459706
   61.9232491    61.92155271   61.91941802   61.91673209   61.91335307
   61.90910288   61.9037581    61.89703877   61.88859439   61.87798683
   61.86466945   61.84796171   61.8270189    61.80079626   61.76800746
   61.72707772   61.67609273   61.61274596   61.53428887   61.43749087
   61.3186192    61.17345158   60.99733666   60.78531702   60.53232474
   60.23344968   59.88426474   59.4811739    59.02173279   58.50488593
   57.93107399   57.30218864   56.62138453   55.89278661   55.12114667
   54.31150351   53.46888806   52.59809699   51.70354039   50.78915708
   49.85838401   48.91416458   47.95898167   46.99490447   46.02364055
   45.04658789   44.06488369   43.07944805   42.09102198   41.10019985
   40.10745645   39.11316936   38.1176372    37.12109435   36.12372268
   35.12566076   34.12701093   33.12784455   32.12820574   31.12811362
   30.12756329   29.12652566   28.12494581   27.12274029   26.11979269
   25.11594774   24.1110034    23.10470062   22.09671053   21.0866183
   20.07390329   19.05791484   18.03784307   17.0126842    15.98120019
   14.94187281   13.89285331   12.8319098    11.75637652   10.66311155
    9.54847223    8.40832101    7.23807625    6.03282316    4.78749612
    3.49713467    2.1572006     0.76392524   -0.68536095   -2.1919724
   -3.75573552   -5.37500647   -7.04683583   -8.76724633  -10.53157141
  -12.33479915  -14.17187742  -16.03795328  -17.92853823  -19.83960407
  -21.76762197  -23.70956006  -25.6628539   -27.62536165  -29.59531277
  -31.57125631  -33.55201233  -35.53662888  -37.52434531  -39.51456241
  -41.50681945  -43.50077779  -45.49621061  -47.49299828  -49.49112819
  -51.49069801  -53.49192076  -55.4951307   -57.50078943  -59.50949302
  -61.52198174  -63.53915491  -65.56209283  -67.59208655  -69.63067459
  -71.67968361  -73.74126873  -75.8179474   -77.91261988  -80.02856839
  -82.1694266   -84.33911124  -86.54170874  -88.78131243  -91.06181023
  -93.38663137  -95.75847293  -98.17904294 -100.64887234 -103.16725567
 -105.7323772  -108.34166356 -110.99238499 -113.68251365 -116.4118483
 -119.18342999 -122.00529967 -124.89266066 -127.87041107 -130.97537152
 -134.25442706 -137.74056325 -141.32933192 -144.36074034 -145.49371353
 -144.79151648]","[ 178.74647152  178.59357557  178.42204741  178.22962339  178.01376773
  177.77164095  177.50006515  177.19548605  176.8539317   176.47096809
  176.04165192  175.56048142  175.02134622  174.41747843  173.74140752
  172.98492357  172.13905456  171.19406639  170.13949669  168.96423758
  167.65668644  166.20498793  164.59739425  162.82277157  160.87127763
  158.73522377  156.41011252  153.89580403  151.19771311  148.32787891
  145.30569656  142.1580798   138.91886108  135.62734589  132.3261078
  129.05829377  125.86483936  122.78201879  119.83966302  117.06021035
  114.45857114  112.04264993  109.81430112  107.77049376  105.9045034
  104.20700833  102.6670238   101.27265139  100.01164932   98.87184476
   97.84141574   96.90907014   96.0641468    95.29665934   94.59729941
   93.95741185   93.36895127   92.82442678   92.31683961   91.83961682
   91.38654332   90.95169323   90.52936158   90.1139963    89.70013087
   89.2823171    88.85505812   88.41274104   87.94956929   87.45949433
   86.93614697   86.37276872   85.762144     85.09653484   84.36762054
   83.56644617   82.68338526   81.70812454   80.62968137   79.43646799
   78.1164208    76.65721721   75.04660625   73.27288112   71.32551918
   69.19600588   66.87883828   64.37266934   61.68150484   58.81580538
   55.79329069   52.63921526   49.38590982   46.07148055   42.73771966
   39.42746588   36.18179837   33.03749265   30.02509593   27.16781869
   24.48125495   21.97379399   19.64750611   17.49927391   15.52197753
   13.70559984   12.03817583   10.50655624    9.09698672    7.79552121
    6.58829593    5.46169136    4.40240729    3.3974726     2.43420727
    1.50015143    0.58297369   -0.32963055   -1.25004103   -2.19080712
   -3.16472935   -4.18492705   -5.26489589   -6.41856332   -7.66035035
   -9.00524362  -10.46887257  -12.06757547  -13.81842922  -15.73921355
  -17.84828131  -20.16431126  -22.70592757  -25.49117977  -28.53688907
  -31.85788214  -35.46615149  -39.37000306  -43.57327608  -48.07474771
  -52.86785857  -57.94090366  -63.27780267  -68.85948295  -74.66578802
  -80.67771512  -86.8797601   -93.26226963  -99.82399818 -106.57554485
 -113.54504512 -120.7886124  -128.41015331 -136.59984989 -145.71164148
 -156.42613651 -170.09501931  170.68922451  142.71582285  109.43420224
   82.53496404]",446683.59215095954,46.07148055470179,61.92773213394233,0.5u,1.0m,0.8,0.6,0.5m,0.0m,0.001m,0.001m,0.25m,0.5m,1000.0m,Best
1,600.8020892921824u,0.32712894007182364u,0.8022373012367914u,17.527054108216433,446.68359215096194,46.07148055470179,3.21288688990388,30.808820843991203,1.26u,0.72u,5.99831199946929e-07u,0.002u,0.235,3.0000000000000027,0.188,"[1.00000000e+01 1.12201845e+01 1.25892541e+01 1.41253754e+01
 1.58489319e+01 1.77827941e+01 1.99526231e+01 2.23872114e+01
 2.51188643e+01 2.81838293e+01 3.16227766e+01 3.54813389e+01
 3.98107171e+01 4.46683592e+01 5.01187234e+01 5.62341325e+01
 6.30957344e+01 7.07945784e+01 7.94328235e+01 8.91250938e+01
 1.00000000e+02 1.12201845e+02 1.25892541e+02 1.41253754e+02
 1.58489319e+02 1.77827941e+02 1.99526231e+02 2.23872114e+02
 2.51188643e+02 2.81838293e+02 3.16227766e+02 3.54813389e+02
 3.98107171e+02 4.46683592e+02 5.01187234e+02 5.62341325e+02
 6.30957344e+02 7.07945784e+02 7.94328235e+02 8.91250938e+02
 1.00000000e+03 1.12201845e+03 1.25892541e+03 1.41253754e+03
 1.58489319e+03 1.77827941e+03 1.99526231e+03 2.23872114e+03
 2.51188643e+03 2.81838293e+03 3.16227766e+03 3.54813389e+03
 3.98107171e+03 4.46683592e+03 5.01187234e+03 5.62341325e+03
 6.30957344e+03 7.07945784e+03 7.94328235e+03 8.91250938e+03
 1.00000000e+04 1.12201845e+04 1.25892541e+04 1.41253754e+04
 1.58489319e+04 1.77827941e+04 1.99526231e+04 2.23872114e+04
 2.51188643e+04 2.81838293e+04 3.16227766e+04 3.54813389e+04
 3.98107171e+04 4.46683592e+04 5.01187234e+04 5.62341325e+04
 6.30957344e+04 7.07945784e+04 7.94328235e+04 8.91250938e+04
 1.00000000e+05 1.12201845e+05 1.25892541e+05 1.41253754e+05
 1.58489319e+05 1.77827941e+05 1.99526231e+05 2.23872114e+05
 2.51188643e+05 2.81838293e+05 3.16227766e+05 3.54813389e+05
 3.98107171e+05 4.46683592e+05 5.01187234e+05 5.62341325e+05
 6.30957344e+05 7.07945784e+05 7.94328235e+05 8.91250938e+05
 1.00000000e+06 1.12201845e+06 1.25892541e+06 1.41253754e+06
 1.58489319e+06 1.77827941e+06 1.99526231e+06 2.23872114e+06
 2.51188643e+06 2.81838293e+06 3.16227766e+06 3.54813389e+06
 3.98107171e+06 4.46683592e+06 5.01187234e+06 5.62341325e+06
 6.30957344e+06 7.07945784e+06 7.94328235e+06 8.91250938e+06
 1.00000000e+07 1.12201845e+07 1.25892541e+07 1.41253754e+07
 1.58489319e+07 1.77827941e+07 1.99526231e+07 2.23872114e+07
 2.51188643e+07 2.81838293e+07 3.16227766e+07 3.54813389e+07
 3.98107171e+07 4.46683592e+07 5.01187234e+07 5.62341325e+07
 6.30957344e+07 7.07945784e+07 7.94328235e+07 8.91250938e+07
 1.00000000e+08 1.12201845e+08 1.25892541e+08 1.41253754e+08
 1.58489319e+08 1.77827941e+08 1.99526231e+08 2.23872114e+08
 2.51188643e+08 2.81838293e+08 3.16227766e+08 3.54813389e+08
 3.98107171e+08 4.46683592e+08 5.01187234e+08 5.62341325e+08
 6.30957344e+08 7.07945784e+08 7.94328235e+08 8.91250938e+08
 1.00000000e+09]","[  61.92773213   61.92719506   61.92651902   61.92566809   61.92459706
   61.9232491    61.92155271   61.91941802   61.91673209   61.91335307
   61.90910288   61.9037581    61.89703877   61.88859439   61.87798683
   61.86466945   61.84796171   61.8270189    61.80079626   61.76800746
   61.72707772   61.67609273   61.61274596   61.53428887   61.43749087
   61.3186192    61.17345158   60.99733666   60.78531702   60.53232474
   60.23344968   59.88426474   59.4811739    59.02173279   58.50488593
   57.93107399   57.30218864   56.62138453   55.89278661   55.12114667
   54.31150351   53.46888806   52.59809699   51.70354039   50.78915708
   49.85838401   48.91416458   47.95898167   46.99490447   46.02364055
   45.04658789   44.06488369   43.07944805   42.09102198   41.10019985
   40.10745645   39.11316936   38.1176372    37.12109435   36.12372268
   35.12566076   34.12701093   33.12784455   32.12820574   31.12811362
   30.12756329   29.12652566   28.12494581   27.12274029   26.11979269
   25.11594774   24.1110034    23.10470062   22.09671053   21.0866183
   20.07390329   19.05791484   18.03784307   17.0126842    15.98120019
   14.94187281   13.89285331   12.8319098    11.75637652   10.66311155
    9.54847223    8.40832101    7.23807625    6.03282316    4.78749612
    3.49713467    2.1572006     0.76392524   -0.68536095   -2.1919724
   -3.75573552   -5.37500647   -7.04683583   -8.76724633  -10.53157141
  -12.33479915  -14.17187742  -16.03795328  -17.92853823  -19.83960407
  -21.76762197  -23.70956006  -25.6628539   -27.62536165  -29.59531277
  -31.57125631  -33.55201233  -35.53662888  -37.52434531  -39.51456241
  -41.50681945  -43.50077779  -45.49621061  -47.49299828  -49.49112819
  -51.49069801  -53.49192076  -55.4951307   -57.50078943  -59.50949302
  -61.52198174  -63.53915491  -65.56209283  -67.59208655  -69.63067459
  -71.67968361  -73.74126873  -75.8179474   -77.91261988  -80.02856839
  -82.1694266   -84.33911124  -86.54170874  -88.78131243  -91.06181023
  -93.38663137  -95.75847293  -98.17904294 -100.64887234 -103.16725567
 -105.7323772  -108.34166356 -110.99238499 -113.68251365 -116.4118483
 -119.18342999 -122.00529967 -124.89266066 -127.87041107 -130.97537152
 -134.25442706 -137.74056325 -141.32933192 -144.36074034 -145.49371353
 -144.79151648]","[ 178.74647152  178.59357557  178.42204741  178.22962339  178.01376773
  177.77164095  177.50006515  177.19548605  176.8539317   176.47096809
  176.04165192  175.56048142  175.02134622  174.41747843  173.74140752
  172.98492357  172.13905456  171.19406639  170.13949669  168.96423758
  167.65668644  166.20498793  164.59739425  162.82277157  160.87127763
  158.73522377  156.41011252  153.89580403  151.19771311  148.32787891
  145.30569656  142.1580798   138.91886108  135.62734589  132.3261078
  129.05829377  125.86483936  122.78201879  119.83966302  117.06021035
  114.45857114  112.04264993  109.81430112  107.77049376  105.9045034
  104.20700833  102.6670238   101.27265139  100.01164932   98.87184476
   97.84141574   96.90907014   96.0641468    95.29665934   94.59729941
   93.95741185   93.36895127   92.82442678   92.31683961   91.83961682
   91.38654332   90.95169323   90.52936158   90.1139963    89.70013087
   89.2823171    88.85505812   88.41274104   87.94956929   87.45949433
   86.93614697   86.37276872   85.762144     85.09653484   84.36762054
   83.56644617   82.68338526   81.70812454   80.62968137   79.43646799
   78.1164208    76.65721721   75.04660625   73.27288112   71.32551918
   69.19600588   66.87883828   64.37266934   61.68150484   58.81580538
   55.79329069   52.63921526   49.38590982   46.07148055   42.73771966
   39.42746588   36.18179837   33.03749265   30.02509593   27.16781869
   24.48125495   21.97379399   19.64750611   17.49927391   15.52197753
   13.70559984   12.03817583   10.50655624    9.09698672    7.79552121
    6.58829593    5.46169136    4.40240729    3.3974726     2.43420727
    1.50015143    0.58297369   -0.32963055   -1.25004103   -2.19080712
   -3.16472935   -4.18492705   -5.26489589   -6.41856332   -7.66035035
   -9.00524362  -10.46887257  -12.06757547  -13.81842922  -15.73921355
  -17.84828131  -20.16431126  -22.70592757  -25.49117977  -28.53688907
  -31.85788214  -35.46615149  -39.37000306  -43.57327608  -48.07474771
  -52.86785857  -57.94090366  -63.27780267  -68.85948295  -74.66578802
  -80.67771512  -86.8797601   -93.26226963  -99.82399818 -106.57554485
 -113.54504512 -120.7886124  -128.41015331 -136.59984989 -145.71164148
 -156.42613651 -170.09501931  170.68922451  142.71582285  109.43420224
   82.53496404]",446683.59215095954,46.07148055470179,61.92773213394233,0.5u,1.0m,0.8,0.6,0.5m,0.0m,0.001m,0.001m,0.25m,0.5m,1000.0m,Best
2,600.8020892921824u,0.32712894007182364u,0.8022373012367914u,17.527054108216433,446.68359215096194,46.07148055470179,3.21288688990388,30.808820843991203,1.26u,0.72u,5.99831199946929e-07u,0.002u,0.235,3.0000000000000027,0.188,"[1.00000000e+01 1.12201845e+01 1.25892541e+01 1.41253754e+01
 1.58489319e+01 1.77827941e+01 1.99526231e+01 2.23872114e+01
 2.51188643e+01 2.81838293e+01 3.16227766e+01 3.54813389e+01
 3.98107171e+01 4.46683592e+01 5.01187234e+01 5.62341325e+01
 6.30957344e+01 7.07945784e+01 7.94328235e+01 8.91250938e+01
 1.00000000e+02 1.12201845e+02 1.25892541e+02 1.41253754e+02
 1.58489319e+02 1.77827941e+02 1.99526231e+02 2.23872114e+02
 2.51188643e+02 2.81838293e+02 3.16227766e+02 3.54813389e+02
 3.98107171e+02 4.46683592e+02 5.01187234e+02 5.62341325e+02
 6.30957344e+02 7.07945784e+02 7.94328235e+02 8.91250938e+02
 1.00000000e+03 1.12201845e+03 1.25892541e+03 1.41253754e+03
 1.58489319e+03 1.77827941e+03 1.99526231e+03 2.23872114e+03
 2.51188643e+03 2.81838293e+03 3.16227766e+03 3.54813389e+03
 3.98107171e+03 4.46683592e+03 5.01187234e+03 5.62341325e+03
 6.30957344e+03 7.07945784e+03 7.94328235e+03 8.91250938e+03
 1.00000000e+04 1.12201845e+04 1.25892541e+04 1.41253754e+04
 1.58489319e+04 1.77827941e+04 1.99526231e+04 2.23872114e+04
 2.51188643e+04 2.81838293e+04 3.16227766e+04 3.54813389e+04
 3.98107171e+04 4.46683592e+04 5.01187234e+04 5.62341325e+04
 6.30957344e+04 7.07945784e+04 7.94328235e+04 8.91250938e+04
 1.00000000e+05 1.12201845e+05 1.25892541e+05 1.41253754e+05
 1.58489319e+05 1.77827941e+05 1.99526231e+05 2.23872114e+05
 2.51188643e+05 2.81838293e+05 3.16227766e+05 3.54813389e+05
 3.98107171e+05 4.46683592e+05 5.01187234e+05 5.62341325e+05
 6.30957344e+05 7.07945784e+05 7.94328235e+05 8.91250938e+05
 1.00000000e+06 1.12201845e+06 1.25892541e+06 1.41253754e+06
 1.58489319e+06 1.77827941e+06 1.99526231e+06 2.23872114e+06
 2.51188643e+06 2.81838293e+06 3.16227766e+06 3.54813389e+06
 3.98107171e+06 4.46683592e+06 5.01187234e+06 5.62341325e+06
 6.30957344e+06 7.07945784e+06 7.94328235e+06 8.91250938e+06
 1.00000000e+07 1.12201845e+07 1.25892541e+07 1.41253754e+07
 1.58489319e+07 1.77827941e+07 1.99526231e+07 2.23872114e+07
 2.51188643e+07 2.81838293e+07 3.16227766e+07 3.54813389e+07
 3.98107171e+07 4.46683592e+07 5.01187234e+07 5.62341325e+07
 6.30957344e+07 7.07945784e+07 7.94328235e+07 8.91250938e+07
 1.00000000e+08 1.12201845e+08 1.25892541e+08 1.41253754e+08
 1.58489319e+08 1.77827941e+08 1.99526231e+08 2.23872114e+08
 2.51188643e+08 2.81838293e+08 3.16227766e+08 3.54813389e+08
 3.98107171e+08 4.46683592e+08 5.01187234e+08 5.62341325e+08
 6.30957344e+08 7.07945784e+08 7.94328235e+08 8.91250938e+08
 1.00000000e+09]","[  61.92773213   61.92719506   61.92651902   61.92566809   61.92459706
   61.9232491    61.92155271   61.91941802   61.91673209   61.91335307
   61.90910288   61.9037581    61.89703877   61.88859439   61.87798683
   61.86466945   61.84796171   61.8270189    61.80079626   61.76800746
   61.72707772   61.67609273   61.61274596   61.53428887   61.43749087
   61.3186192    61.17345158   60.99733666   60.78531702   60.53232474
   60.23344968   59.88426474   59.4811739    59.02173279   58.50488593
   57.93107399   57.30218864   56.62138453   55.89278661   55.12114667
   54.31150351   53.46888806   52.59809699   51.70354039   50.78915708
   49.85838401   48.91416458   47.95898167   46.99490447   46.02364055
   45.04658789   44.06488369   43.07944805   42.09102198   41.10019985
   40.10745645   39.11316936   38.1176372    37.12109435   36.12372268
   35.12566076   34.12701093   33.12784455   32.12820574   31.12811362
   30.12756329   29.12652566   28.12494581   27.12274029   26.11979269
   25.11594774   24.1110034    23.10470062   22.09671053   21.0866183
   20.07390329   19.05791484   18.03784307   17.0126842    15.98120019
   14.94187281   13.89285331   12.8319098    11.75637652   10.66311155
    9.54847223    8.40832101    7.23807625    6.03282316    4.78749612
    3.49713467    2.1572006     0.76392524   -0.68536095   -2.1919724
   -3.75573552   -5.37500647   -7.04683583   -8.76724633  -10.53157141
  -12.33479915  -14.17187742  -16.03795328  -17.92853823  -19.83960407
  -21.76762197  -23.70956006  -25.6628539   -27.62536165  -29.59531277
  -31.57125631  -33.55201233  -35.53662888  -37.52434531  -39.51456241
  -41.50681945  -43.50077779  -45.49621061  -47.49299828  -49.49112819
  -51.49069801  -53.49192076  -55.4951307   -57.50078943  -59.50949302
  -61.52198174  -63.53915491  -65.56209283  -67.59208655  -69.63067459
  -71.67968361  -73.74126873  -75.8179474   -77.91261988  -80.02856839
  -82.1694266   -84.33911124  -86.54170874  -88.78131243  -91.06181023
  -93.38663137  -95.75847293  -98.17904294 -100.64887234 -103.16725567
 -105.7323772  -108.34166356 -110.99238499 -113.68251365 -116.4118483
 -119.18342999 -122.00529967 -124.89266066 -127.87041107 -130.97537152
 -134.25442706 -137.74056325 -141.32933192 -144.36074034 -145.49371353
