,Wpass,Wdiff,Wload,gm_id,fp1_sim,phase_margin,loop_gain_error,fp1_error,l1,l2,Cc,Cload,Iq_sim,Iq_error,Power,freq,mag_db,phase_deg,f0db_sim,phase_margin_sim,loop_gain,ibias,Iload,Vin,Vout,iload_min,tdelay,trise,tfall,ton,tperiod,ncycles,Best_or_default
0,2056.6425423869114u,0.3339205773196117u,1.1520469365115864u,20.991596638655462,251.18864315095746,54.97304876022239,0.41543026933143307,69.36685713910381,0.54u,0.36u,5.059075035383994e-07u,0.002u,0.24,2.0000000000000018,0.192,"[1.00000000e+01 1.12201845e+01 1.25892541e+01 1.41253754e+01
 1.58489319e+01 1.77827941e+01 1.99526231e+01 2.23872114e+01
 2.51188643e+01 2.81838293e+01 3.16227766e+01 3.54813389e+01
 3.98107171e+01 4.46683592e+01 5.01187234e+01 5.62341325e+01
 6.30957344e+01 7.07945784e+01 7.94328235e+01 8.91250938e+01
 1.00000000e+02 1.12201845e+02 1.25892541e+02 1.41253754e+02
 1.58489319e+02 1.77827941e+02 1.99526231e+02 2.23872114e+02
 2.51188643e+02 2.81838293e+02 3.16227766e+02 3.54813389e+02
 3.98107171e+02 4.46683592e+02 5.01187234e+02 5.62341325e+02
 6.30957344e+02 7.07945784e+02 7.94328235e+02 8.91250938e+02
 1.00000000e+03 1.12201845e+03 1.25892541e+03 1.41253754e+03
 1.58489319e+03 1.77827941e+03 1.99526231e+03 2.23872114e+03
 2.51188643e+03 2.81838293e+03 3.16227766e+03 3.54813389e+03
 3.98107171e+03 4.46683592e+03 5.01187234e+03 5.62341325e+03
 6.30957344e+03 7.07945784e+03 7.94328235e+03 8.91250938e+03
 1.00000000e+04 1.12201845e+04 1.25892541e+04 1.41253754e+04
 1.58489319e+04 1.77827941e+04 1.99526231e+04 2.23872114e+04
 2.51188643e+04 2.81838293e+04 3.16227766e+04 3.54813389e+04
 3.98107171e+04 4.46683592e+04 5.01187234e+04 5.62341325e+04
 6.30957344e+04 7.07945784e+04 7.94328235e+04 8.91250938e+04
 1.00000000e+05 1.12201845e+05 1.25892541e+05 1.41253754e+05
 1.58489319e+05 1.77827941e+05 1.99526231e+05 2.23872114e+05
 2.51188643e+05 2.81838293e+05 3.16227766e+05 3.54813389e+05
 3.98107171e+05 4.46683592e+05 5.01187234e+05 5.62341325e+05
 6.30957344e+05 7.07945784e+05 7.94328235e+05 8.91250938e+05
 1.00000000e+06 1.12201845e+06 1.25892541e+06 1.41253754e+06
 1.58489319e+06 1.77827941e+06 1.99526231e+06 2.23872114e+06
 2.51188643e+06 2.81838293e+06 3.16227766e+06 3.54813389e+06
 3.98107171e+06 4.46683592e+06 5.01187234e+06 5.62341325e+06
 6.30957344e+06 7.07945784e+06 7.94328235e+06 8.91250938e+06
 1.00000000e+07 1.12201845e+07 1.25892541e+07 1.41253754e+07
 1.58489319e+07 1.77827941e+07 1.99526231e+07 2.23872114e+07
 2.51188643e+07 2.81838293e+07 3.16227766e+07 3.54813389e+07
 3.98107171e+07 4.46683592e+07 5.01187234e+07 5.62341325e+07
 6.30957344e+07 7.07945784e+07 7.94328235e+07 8.91250938e+07
 1.00000000e+08 1.12201845e+08 1.25892541e+08 1.41253754e+08
 1.58489319e+08 1.77827941e+08 1.99526231e+08 2.23872114e+08
 2.51188643e+08 2.81838293e+08 3.16227766e+08 3.54813389e+08
 3.98107171e+08 4.46683592e+08 5.01187234e+08 5.62341325e+08
 6.30957344e+08 7.07945784e+08 7.94328235e+08 8.91250938e+08
 1.00000000e+09]","[  60.24925816   60.24759996   60.24551331   60.2428878    60.23958474
   60.23542999   60.23020512   60.22363633   60.21538081   60.20500999
   60.19198902   60.1756519    60.15517169   60.1295252    60.09745206
   60.05740827   60.00751552   59.94550845   59.86868432   59.77386161
   59.65735739   59.51499608   59.34216449   59.13392801   58.88521882
   58.59109737   58.24707322   57.84945283   57.39566538   56.88451063
   56.31628054   55.69272934   55.01689834   54.29283132   53.52523363
   52.71912983   51.87956302   51.01136114   50.11897746   49.20639978
   48.27711507   47.33411465   46.37992537   45.41665544   44.44604631
   43.46952492   42.48825291   41.50317094   40.51503729   39.52446087
   38.53192892   37.53782986   36.54247207   35.54609905   34.54890161
   33.5510275    32.55258901   31.55366873   30.5543238    29.55458893
   28.55447817   27.55398563   26.55308524   25.55172932   24.54984612
   23.54733612   22.54406688   21.53986625   20.53451361   19.52772878
   18.51915813   17.50835738   16.49477046   15.47770387   14.45629593
   13.42948046   12.39594475   11.35408224   10.30194118    9.23717204
    8.15697839    7.05807843    5.93668767    4.78853578    3.60893299
    2.39290017    1.13537228   -0.16852646   -1.52315296   -2.93199763
   -4.39736979   -5.92017208   -7.4998085    -9.13424537  -10.82021235
  -12.55350309  -14.32932063  -16.14261426  -17.98836797  -19.86181929
  -21.758604    -23.67483456  -25.60712601  -27.55258442  -29.50877201
  -31.47365946  -33.44557373  -35.42314625  -37.40526482  -39.39103068
  -41.37972137  -43.37075942  -45.36368643  -47.35814205  -49.35384729
  -51.35059161  -53.3482231   -55.34664138  -57.34579261  -59.34566639
  -61.34629417  -63.34774942  -65.35014968  -67.35366108  -69.35850581
  -71.36497331  -73.37343563  -75.38436784  -77.39837406  -79.41622
  -81.43887273  -83.46754798  -85.50376447  -87.54940273  -89.60676323
  -91.67861391  -93.76821277  -95.87928619  -98.01594256 -100.18250607
 -102.38326969 -104.62219145 -106.90258858 -109.22691399 -111.59671777
 -114.0128979  -116.47632878 -118.98893682 -121.55529141 -124.18483692
 -126.89507199 -129.7164274  -132.70067031 -135.93751018 -139.59289135
 -144.01664736 -150.15530412 -162.14948392 -156.97503692 -150.8990291
 -147.97224323]","[ 177.79725847  177.52879749  177.22770878  176.89006439  176.51147889
  176.08706247  175.61137185  175.07836026  174.48132824  173.81287804
  173.06487579  172.22842713  171.29387448  170.25082699  169.0882377
  167.79454657  166.35791238  164.76656006  163.0092715   161.07604529
  158.95894059  156.65309863  154.15789993  151.4781645   148.62524284
  145.61779158  142.48200235  139.25108365  135.96389831  132.66282471
  129.39109431  126.18999659  123.09637888  120.14078821  117.34643766
  114.72899601  112.29705461  110.05305091  107.994422    106.11480075
  104.40512591  102.85459462  101.4514309   100.18347371   99.03860463
   98.00504241   97.07153217   96.22745439   95.46287508   94.76855394
   94.13592366   93.55704991   93.02457922   92.53167957   92.07197712
   91.6394913    91.2285696    90.8338228    90.45006107   90.07223082
   89.69535233   89.31445771   88.92452891   88.52043551   88.09687189
   87.6482935    87.16885238   86.65233194   86.09208161   85.48095255
   84.81123609   84.07460784   83.26208179   82.36398035   81.36992891
   80.26888662   79.04922852   77.69889849   76.20565685   74.55744943
   72.74292621   70.75213348   68.57739121   66.21434328   63.66312931
   60.92957367   58.02622745   54.97304876   51.79749101   48.5338137
   45.22154771   41.90322114   38.62163212   35.41707647   32.32495045
   29.37404723   26.58569157   23.9736775    21.54484151   19.30004467
   17.23534188   15.34316201   13.61338241   12.03423625   10.59303376
    9.2767047     8.07218446    6.96667106    5.9477804     5.00362409
    4.12282991    3.29452102    2.50826604    1.75400914    1.02198689
    0.30263664   -0.41350025   -1.13587854   -1.87405163   -2.6377772
   -3.43712712   -4.2826034    -5.18526148   -6.15684091   -7.20990223
   -8.35796665   -9.61565408  -10.99881264  -12.5246305   -14.21171656
  -16.08013042  -18.15133357  -20.44802318  -22.99379869  -25.81260212
  -28.9278721   -32.36136597  -36.13164254  -40.252265    -44.72987302
  -49.5623639   -54.73748104  -60.23209783  -66.01239141  -72.03494205
  -78.24862821  -84.59708462  -91.02150359  -97.46369504 -103.86955364
 -110.19341466 -116.4043897  -122.49735313 -128.5162801  -134.61664236
 -141.28665764 -150.56979156  173.91588618   52.09861599   37.81888348
   31.69159172]",223872.1138568323,54.97304876022239,60.24925816159886,0.5u,1.0m,0.8,0.6,0.5m,0.0m,0.001m,0.001m,0.25m,0.5m,1000.0m,Best
1,2056.6425423869114u,0.3339205773196117u,1.1520469365115864u,20.991596638655462,251.18864315095746,54.97304876022239,0.41543026933143307,69.36685713910381,0.54u,0.36u,5.059075035383994e-07u,0.002u,0.24,2.0000000000000018,0.192,"[1.00000000e+01 1.12201845e+01 1.25892541e+01 1.41253754e+01
 1.58489319e+01 1.77827941e+01 1.99526231e+01 2.23872114e+01
 2.51188643e+01 2.81838293e+01 3.16227766e+01 3.54813389e+01
 3.98107171e+01 4.46683592e+01 5.01187234e+01 5.62341325e+01
 6.30957344e+01 7.07945784e+01 7.94328235e+01 8.91250938e+01
 1.00000000e+02 1.12201845e+02 1.25892541e+02 1.41253754e+02
 1.58489319e+02 1.77827941e+02 1.99526231e+02 2.23872114e+02
 2.51188643e+02 2.81838293e+02 3.16227766e+02 3.54813389e+02
 3.98107171e+02 4.46683592e+02 5.01187234e+02 5.62341325e+02
 6.30957344e+02 7.07945784e+02 7.94328235e+02 8.91250938e+02
 1.00000000e+03 1.12201845e+03 1.25892541e+03 1.41253754e+03
 1.58489319e+03 1.77827941e+03 1.99526231e+03 2.23872114e+03
 2.51188643e+03 2.81838293e+03 3.16227766e+03 3.54813389e+03
 3.98107171e+03 4.46683592e+03 5.01187234e+03 5.62341325e+03
 6.30957344e+03 7.07945784e+03 7.94328235e+03 8.91250938e+03
 1.00000000e+04 1.12201845e+04 1.25892541e+04 1.41253754e+04
 1.58489319e+04 1.77827941e+04 1.99526231e+04 2.23872114e+04
 2.51188643e+04 2.81838293e+04 3.16227766e+04 3.54813389e+04
 3.98107171e+04 4.46683592e+04 5.01187234e+04 5.62341325e+04
 6.30957344e+04 7.07945784e+04 7.94328235e+04 8.91250938e+04
 1.00000000e+05 1.12201845e+05 1.25892541e+05 1.41253754e+05
 1.58489319e+05 1.77827941e+05 1.99526231e+05 2.23872114e+05
 2.51188643e+05 2.81838293e+05 3.16227766e+05 3.54813389e+05
 3.98107171e+05 4.46683592e+05 5.01187234e+05 5.62341325e+05
 6.30957344e+05 7.07945784e+05 7.94328235e+05 8.91250938e+05
 1.00000000e+06 1.12201845e+06 1.25892541e+06 1.41253754e+06
 1.58489319e+06 1.77827941e+06 1.99526231e+06 2.23872114e+06
 2.51188643e+06 2.81838293e+06 3.16227766e+06 3.54813389e+06
 3.98107171e+06 4.46683592e+06 5.01187234e+06 5.62341325e+06
 6.30957344e+06 7.07945784e+06 7.94328235e+06 8.91250938e+06
 1.00000000e+07 1.12201845e+07 1.25892541e+07 1.41253754e+07
 1.58489319e+07 1.77827941e+07 1.99526231e+07 2.23872114e+07
 2.51188643e+07 2.81838293e+07 3.16227766e+07 3.54813389e+07
 3.98107171e+07 4.46683592e+07 5.01187234e+07 5.62341325e+07
 6.30957344e+07 7.07945784e+07 7.94328235e+07 8.91250938e+07
 1.00000000e+08 1.12201845e+08 1.25892541e+08 1.41253754e+08
 1.58489319e+08 1.77827941e+08 1.99526231e+08 2.23872114e+08
 2.51188643e+08 2.81838293e+08 3.16227766e+08 3.54813389e+08
 3.98107171e+08 4.46683592e+08 5.01187234e+08 5.62341325e+08
 6.30957344e+08 7.07945784e+08 7.94328235e+08 8.91250938e+08
 1.00000000e+09]","[  60.24925816   60.24759996   60.24551331   60.2428878    60.23958474
   60.23542999   60.23020512   60.22363633   60.21538081   60.20500999
   60.19198902   60.1756519    60.15517169   60.1295252    60.09745206
   60.05740827   60.00751552   59.94550845   59.86868432   59.77386161
   59.65735739   59.51499608   59.34216449   59.13392801   58.88521882
   58.59109737   58.24707322   57.84945283   57.39566538   56.88451063
   56.31628054   55.69272934   55.01689834   54.29283132   53.52523363
   52.71912983   51.87956302   51.01136114   50.11897746   49.20639978
   48.27711507   47.33411465   46.37992537   45.41665544   44.44604631
   43.46952492   42.48825291   41.50317094   40.51503729   39.52446087
   38.53192892   37.53782986   36.54247207   35.54609905   34.54890161
   33.5510275    32.55258901   31.55366873   30.5543238    29.55458893
   28.55447817   27.55398563   26.55308524   25.55172932   24.54984612
   23.54733612   22.54406688   21.53986625   20.53451361   19.52772878
   18.51915813   17.50835738   16.49477046   15.47770387   14.45629593
   13.42948046   12.39594475   11.35408224   10.30194118    9.23717204
    8.15697839    7.05807843    5.93668767    4.78853578    3.60893299
    2.39290017    1.13537228   -0.16852646   -1.52315296   -2.93199763
   -4.39736979   -5.92017208   -7.4998085    -9.13424537  -10.82021235
  -12.55350309  -14.32932063  -16.14261426  -17.98836797  -19.86181929
  -21.758604    -23.67483456  -25.60712601  -27.55258442  -29.50877201
  -31.47365946  -33.44557373  -35.42314625  -37.40526482  -39.39103068
  -41.37972137  -43.37075942  -45.36368643  -47.35814205  -49.35384729
  -51.35059161  -53.3482231   -55.34664138  -57.34579261  -59.34566639
  -61.34629417  -63.34774942  -65.35014968  -67.35366108  -69.35850581
  -71.36497331  -73.37343563  -75.38436784  -77.39837406  -79.41622
  -81.43887273  -83.46754798  -85.50376447  -87.54940273  -89.60676323
  -91.67861391  -93.76821277  -95.87928619  -98.01594256 -100.18250607
 -102.38326969 -104.62219145 -106.90258858 -109.22691399 -111.59671777
 -114.0128979  -116.47632878 -118.98893682 -121.55529141 -124.18483692
 -126.89507199 -129.7164274  -132.70067031 -135.93751018 -139.59289135
 -144.01664736 -150.15530412 -162.14948392 -156.97503692 -150.8990291
 -147.97224323]","[ 177.79725847  177.52879749  177.22770878  176.89006439  176.51147889
  176.08706247  175.61137185  175.07836026  174.48132824  173.81287804
  173.06487579  172.22842713  171.29387448  170.25082699  169.0882377
  167.79454657  166.35791238  164.76656006  163.0092715   161.07604529
  158.95894059  156.65309863  154.15789993  151.4781645   148.62524284
  145.61779158  142.48200235  139.25108365  135.96389831  132.66282471
  129.39109431  126.18999659  123.09637888  120.14078821  117.34643766
  114.72899601  112.29705461  110.05305091  107.994422    106.11480075
  104.40512591  102.85459462  101.4514309   100.18347371   99.03860463
   98.00504241   97.07153217   96.22745439   95.46287508   94.76855394
   94.13592366   93.55704991   93.02457922   92.53167957   92.07197712
   91.6394913    91.2285696    90.8338228    90.45006107   90.07223082
   89.69535233   89.31445771   88.92452891   88.52043551   88.09687189
   87.6482935    87.16885238   86.65233194   86.09208161   85.48095255
   84.81123609   84.07460784   83.26208179   82.36398035   81.36992891
   80.26888662   79.04922852   77.69889849   76.20565685   74.55744943
   72.74292621   70.75213348   68.57739121   66.21434328   63.66312931
   60.92957367   58.02622745   54.97304876   51.79749101   48.5338137
   45.22154771   41.90322114   38.62163212   35.41707647   32.32495045
   29.37404723   26.58569157   23.9736775    21.54484151   19.30004467
   17.23534188   15.34316201   13.61338241   12.03423625   10.59303376
    9.2767047     8.07218446    6.96667106    5.9477804     5.00362409
    4.12282991    3.29452102    2.50826604    1.75400914    1.02198689
    0.30263664   -0.41350025   -1.13587854   -1.87405163   -2.6377772
   -3.43712712   -4.2826034    -5.18526148   -6.15684091   -7.20990223
   -8.35796665   -9.61565408  -10.99881264  -12.5246305   -14.21171656
  -16.08013042  -18.15133357  -20.44802318  -22.99379869  -25.81260212
  -28.9278721   -32.36136597  -36.13164254  -40.252265    -44.72987302
  -49.5623639   -54.73748104  -60.23209783  -66.01239141  -72.03494205
  -78.24862821  -84.59708462  -91.02150359  -97.46369504 -103.86955364
 -110.19341466 -116.4043897  -122.49735313 -128.5162801  -134.61664236
 -141.28665764 -150.56979156  173.91588618   52.09861599   37.81888348
   31.69159172]",223872.1138568323,54.97304876022239,60.24925816159886,0.5u,1.0m,0.8,0.6,0.5m,0.0m,0.001m,0.001m,0.25m,0.5m,1000.0m,Best
2,2056.6425423869114u,0.3339205773196117u,1.1520469365115864u,20.991596638655462,251.18864315095746,54.97304876022239,0.41543026933143307,69.36685713910381,0.54u,0.36u,5.059075035383994e-07u,0.002u,0.24,2.0000000000000018,0.192,"[1.00000000e+01 1.12201845e+01 1.25892541e+01 1.41253754e+01
 1.58489319e+01 1.77827941e+01 1.99526231e+01 2.23872114e+01
 2.51188643e+01 2.81838293e+01 3.16227766e+01 3.54813389e+01
 3.98107171e+01 4.46683592e+01 5.01187234e+01 5.62341325e+01
 6.30957344e+01 7.07945784e+01 7.94328235e+01 8.91250938e+01
 1.00000000e+02 1.12201845e+02 1.25892541e+02 1.41253754e+02
 1.58489319e+02 1.77827941e+02 1.99526231e+02 2.23872114e+02
 2.51188643e+02 2.81838293e+02 3.16227766e+02 3.54813389e+02
 3.98107171e+02 4.46683592e+02 5.01187234e+02 5.62341325e+02
 6.30957344e+02 7.07945784e+02 7.94328235e+02 8.91250938e+02
 1.00000000e+03 1.12201845e+03 1.25892541e+03 1.41253754e+03
 1.58489319e+03 1.77827941e+03 1.99526231e+03 2.23872114e+03
 2.51188643e+03 2.81838293e+03 3.16227766e+03 3.54813389e+03
 3.98107171e+03 4.46683592e+03 5.01187234e+03 5.62341325e+03
 6.30957344e+03 7.07945784e+03 7.94328235e+03 8.91250938e+03
 1.00000000e+04 1.12201845e+04 1.25892541e+04 1.41253754e+04
 1.58489319e+04 1.77827941e+04 1.99526231e+04 2.23872114e+04
 2.51188643e+04 2.81838293e+04 3.16227766e+04 3.54813389e+04
 3.98107171e+04 4.46683592e+04 5.01187234e+04 5.62341325e+04
 6.30957344e+04 7.07945784e+04 7.94328235e+04 8.91250938e+04
 1.00000000e+05 1.12201845e+05 1.25892541e+05 1.41253754e+05
 1.58489319e+05 1.77827941e+05 1.99526231e+05 2.23872114e+05
 2.51188643e+05 2.81838293e+05 3.16227766e+05 3.54813389e+05
 3.98107171e+05 4.46683592e+05 5.01187234e+05 5.62341325e+05
 6.30957344e+05 7.07945784e+05 7.94328235e+05 8.91250938e+05
 1.00000000e+06 1.12201845e+06 1.25892541e+06 1.41253754e+06
 1.58489319e+06 1.77827941e+06 1.99526231e+06 2.23872114e+06
 2.51188643e+06 2.81838293e+06 3.16227766e+06 3.54813389e+06
 3.98107171e+06 4.46683592e+06 5.01187234e+06 5.62341325e+06
 6.30957344e+06 7.07945784e+06 7.94328235e+06 8.91250938e+06
 1.00000000e+07 1.12201845e+07 1.25892541e+07 1.41253754e+07
 1.58489319e+07 1.77827941e+07 1.99526231e+07 2.23872114e+07
 2.51188643e+07 2.81838293e+07 3.16227766e+07 3.54813389e+07
 3.98107171e+07 4.46683592e+07 5.01187234e+07 5.62341325e+07
 6.30957344e+07 7.07945784e+07 7.94328235e+07 8.91250938e+07
 1.00000000e+08 1.12201845e+08 1.25892541e+08 1.41253754e+08
 1.58489319e+08 1.77827941e+08 1.99526231e+08 2.23872114e+08
 2.51188643e+08 2.81838293e+08 3.16227766e+08 3.54813389e+08
 3.98107171e+08 4.46683592e+08 5.01187234e+08 5.62341325e+08
 6.30957344e+08 7.07945784e+08 7.94328235e+08 8.91250938e+08
 1.00000000e+09]","[  60.24925816   60.24759996   60.24551331   60.2428878    60.23958474
   60.23542999   60.23020512   60.22363633   60.21538081   60.20500999
   60.19198902   60.1756519    60.15517169   60.1295252    60.09745206
   60.05740827   60.00751552   59.94550845   59.86868432   59.77386161
   59.65735739   59.51499608   59.34216449   59.13392801   58.88521882
   58.59109737   58.24707322   57.84945283   57.39566538   56.88451063
   56.31628054   55.69272934   55.01689834   54.29283132   53.52523363
   52.71912983   51.87956302   51.01136114   50.11897746   49.20639978
   48.27711507   47.33411465   46.37992537   45.41665544   44.44604631
   43.46952492   42.48825291   41.50317094   40.51503729   39.52446087
   38.53192892   37.53782986   36.54247207   35.54609905   34.54890161
   33.5510275    32.55258901   31.55366873   30.5543238    29.55458893
   28.55447817   27.55398563   26.55308524   25.55172932   24.54984612
   23.54733612   22.54406688   21.53986625   20.53451361   19.52772878
   18.51915813   17.50835738   16.49477046   15.47770387   14.45629593
   13.42948046   12.39594475   11.35408224   10.30194118    9.23717204
    8.15697839    7.05807843    5.93668767    4.78853578    3.60893299
    2.39290017    1.13537228   -0.16852646   -1.52315296   -2.93199763
   -4.39736979   -5.92017208   -7.4998085    -9.13424537  -10.82021235
  -12.55350309  -14.32932063  -16.14261426  -17.98836797  -19.86181929
  -21.758604    -23.67483456  -25.60712601  -27.55258442  -29.50877201
  -31.47365946  -33.44557373  -35.42314625  -37.40526482  -39.39103068
  -41.37972137  -43.37075942  -45.36368643  -47.35814205  -49.35384729
  -51.35059161  -53.3482231   -55.34664138  -57.34579261  -59.34566639
  -61.34629417  -63.34774942  -65.35014968  -67.35366108  -69.35850581
  -71.36497331  -73.37343563  -75.38436784  -77.39837406  -79.41622
  -81.43887273  -83.46754798  -85.50376447  -87.54940273  -89.60676323
  -91.67861391  -93.76821277  -95.87928619  -98.01594256 -100.18250607
 -102.38326969 -104.62219145 -106.90258858 -109.22691399 -111.59671777
 -114.0128979  -116.47632878 -118.98893682 -121.55529141 -124.18483692
 -126.89507199 -129.7164274  -132.70067031 -135.93751018 -139.59289135
 -144.01664736 -150.15530412 -162.14948392 -156.97503692 -150.8990291
