,Wpass,Wdiff,Wload,gm_id,fp1_sim,phase_margin,loop_gain_error,fp1_error,l1,l2,Cc,Cload,Iq_sim,Iq_error,Power,freq,mag_db,phase_deg,f0db_sim,phase_margin_sim,loop_gain,ibias,Iload,Vin,Vout,iload_min,tdelay,trise,tfall,ton,tperiod,ncycles,Best_or_default
0,497.33090604156695u,0.43319639995111947u,1.2433272651039173u,6.03030303030303,1584.893192461108,72.95731904186326,33.69039950560227,77.7071842581273,0.18u,0.18u,2.964467737939248e-05u,0.002u,24.7,0.6000000000000014,34.58,"[1.00000000e+01 1.12201845e+01 1.25892541e+01 1.41253754e+01
 1.58489319e+01 1.77827941e+01 1.99526231e+01 2.23872114e+01
 2.51188643e+01 2.81838293e+01 3.16227766e+01 3.54813389e+01
 3.98107171e+01 4.46683592e+01 5.01187234e+01 5.62341325e+01
 6.30957344e+01 7.07945784e+01 7.94328235e+01 8.91250938e+01
 1.00000000e+02 1.12201845e+02 1.25892541e+02 1.41253754e+02
 1.58489319e+02 1.77827941e+02 1.99526231e+02 2.23872114e+02
 2.51188643e+02 2.81838293e+02 3.16227766e+02 3.54813389e+02
 3.98107171e+02 4.46683592e+02 5.01187234e+02 5.62341325e+02
 6.30957344e+02 7.07945784e+02 7.94328235e+02 8.91250938e+02
 1.00000000e+03 1.12201845e+03 1.25892541e+03 1.41253754e+03
 1.58489319e+03 1.77827941e+03 1.99526231e+03 2.23872114e+03
 2.51188643e+03 2.81838293e+03 3.16227766e+03 3.54813389e+03
 3.98107171e+03 4.46683592e+03 5.01187234e+03 5.62341325e+03
 6.30957344e+03 7.07945784e+03 7.94328235e+03 8.91250938e+03
 1.00000000e+04 1.12201845e+04 1.25892541e+04 1.41253754e+04
 1.58489319e+04 1.77827941e+04 1.99526231e+04 2.23872114e+04
 2.51188643e+04 2.81838293e+04 3.16227766e+04 3.54813389e+04
 3.98107171e+04 4.46683592e+04 5.01187234e+04 5.62341325e+04
 6.30957344e+04 7.07945784e+04 7.94328235e+04 8.91250938e+04
 1.00000000e+05 1.12201845e+05 1.25892541e+05 1.41253754e+05
 1.58489319e+05 1.77827941e+05 1.99526231e+05 2.23872114e+05
 2.51188643e+05 2.81838293e+05 3.16227766e+05 3.54813389e+05
 3.98107171e+05 4.46683592e+05 5.01187234e+05 5.62341325e+05
 6.30957344e+05 7.07945784e+05 7.94328235e+05 8.91250938e+05
 1.00000000e+06 1.12201845e+06 1.25892541e+06 1.41253754e+06
 1.58489319e+06 1.77827941e+06 1.99526231e+06 2.23872114e+06
 2.51188643e+06 2.81838293e+06 3.16227766e+06 3.54813389e+06
 3.98107171e+06 4.46683592e+06 5.01187234e+06 5.62341325e+06
 6.30957344e+06 7.07945784e+06 7.94328235e+06 8.91250938e+06
 1.00000000e+07 1.12201845e+07 1.25892541e+07 1.41253754e+07
 1.58489319e+07 1.77827941e+07 1.99526231e+07 2.23872114e+07
 2.51188643e+07 2.81838293e+07 3.16227766e+07 3.54813389e+07
 3.98107171e+07 4.46683592e+07 5.01187234e+07 5.62341325e+07
 6.30957344e+07 7.07945784e+07 7.94328235e+07 8.91250938e+07
 1.00000000e+08 1.12201845e+08 1.25892541e+08 1.41253754e+08
 1.58489319e+08 1.77827941e+08 1.99526231e+08 2.23872114e+08
 2.51188643e+08 2.81838293e+08 3.16227766e+08 3.54813389e+08
 3.98107171e+08 4.46683592e+08 5.01187234e+08 5.62341325e+08
 6.30957344e+08 7.07945784e+08 7.94328235e+08 8.91250938e+08
 1.00000000e+09]","[ 53.4761598   53.47611261  53.47605319  53.47597839  53.47588422
  53.47576568  53.47561644  53.47542857  53.47519207  53.47489436
  53.47451958  53.47404781  53.47345396  53.47270647  53.47176561
  53.47058143  53.46909109  53.4672156   53.46485564  53.46188646
  53.45815135  53.4534537   53.44754693  53.44012214  53.4307929
  53.41907651  53.40437125  53.38592894  53.36282226  53.3339064
  53.29777512  53.25271182  53.19663738  53.12705798  53.04101859
  52.93507023  52.80526236  52.64717452  52.45600246  52.22671204
  51.9542673   51.63392672  51.26158365  50.83410921  50.34964316
  49.807779    49.20960561  48.55759664  47.85537081  47.10737004
  46.31851145  45.49386307  44.63837711  43.75669609  42.85303139
  41.93110406  40.99413309  40.04485608  39.08556958  38.118179
  37.1442513   36.16506589  35.18166143  34.19487712  33.20538836
  32.21373688  31.22035581  30.22559036  29.22971471  28.23294558
  27.23545318  26.2373699   25.23879708  24.23981028  23.24046316
  22.24079034  21.24080918  20.24052067  19.23990951  18.2389433
  17.23757085  16.23571949  15.23329132  14.23015813  13.2261548
  12.22107088  11.21463999  10.20652653   9.19630926   8.18346113
   7.16732479   6.14708309   5.12172419   4.09000085   3.05038443
   2.00101428   0.9396452   -0.13640317  -1.23028824  -2.34566814
  -3.48669471  -4.6579608   -5.86438708  -7.11103717  -8.40285921
  -9.74436693 -11.1392919  -12.59025512 -14.09851394 -15.66383325
 -17.2845077  -18.95752984 -20.67886972 -22.44381317 -24.24730344
 -26.08424236 -27.94972488 -29.83919858 -31.74855328 -33.67415344
 -35.61282806 -37.56183234 -39.51879236 -41.48164089 -43.44854981
 -45.417862   -47.38802405 -49.35751999 -51.32480543 -53.28824157
 -55.2460286  -57.19613853 -59.13624873 -61.06367924 -62.97533882
 -64.86768794 -66.73672984 -68.57804327 -70.38687159 -72.15828046
 -73.88738862 -75.56966313 -77.2012523  -78.77931163 -80.30226714
 -81.76996325 -83.18366157 -84.54588917 -85.86016834 -87.13068388
 -88.36195017 -89.55852862 -90.72482356 -91.86496006 -92.98272968
 -94.08158234 -95.16464404 -96.23474689 -97.29446471 -98.346153
 -99.39199454]","[179.62855387 179.583232   179.53238066 179.4753254  179.4113096
 179.33948445 179.25889779 179.16848157 179.06703786 178.95322313
 178.82553076 178.68227149 178.52155162 178.34124872 178.13898476
 177.91209621 177.65760123 177.37216348 177.05205275 176.69310227
 176.29066307 175.83955578 175.33402091 174.76766893 174.13343264
 173.42352515 172.62940839 171.74177919 170.75058252 169.64506462
 168.41388294 167.0452937  165.52744216 163.84878341 161.99866098
 159.96806449 157.75057142 155.34344951 152.7488523  149.97498363
 147.03704805 143.95776193 140.76720239 137.50183953 134.20273766
 130.913094   127.67545159 124.52901179 121.50744432 118.6374604
 115.93823129 113.42156564 111.09265058 108.95112524 106.99227727
 105.20820545 103.58885158 102.122856   100.79822828  99.60284695
  98.52481311  97.55268615  96.67562801  95.88347952  95.16678741
  94.51679705  93.92542201  93.38519856  92.88923116  92.43113282
  92.00496324  91.60516634  91.22650824  90.86401634  90.5129195
  90.16858941  89.82648281  89.48208434  89.13084948  88.76814733
  88.38920269  87.98903728  87.56240958  87.10375346  86.60711562
  86.06609227  85.47376611  84.82264516  84.10460606  83.3108457
  82.43184676  81.45736508  80.37644952  79.1775087   77.84844297
  76.37686421  74.75042984  72.95731904  70.98687681  68.83044146
  66.48235058  63.94108511  61.21046148  58.30072227  55.2293211
  52.02117045  48.70814892  45.32776416  41.92103081  38.52980798
  35.19398249  31.94892628  28.8235808   25.83935926  23.00987339
  20.34134343  17.83347276  15.48055918  13.27265311  11.19663124
   9.23711201   7.3771852    5.59895922   3.88394726   2.2133217
   0.56806828  -1.07092923  -2.72284538  -4.40688298  -6.14223004
  -7.94797656  -9.84296202 -11.84552269 -13.97310654 -16.24172526
 -18.66522076 -21.2543403  -24.01564511 -26.95032277 -30.05303147
 -33.31096387 -36.70335936 -40.20169    -43.77067444 -47.37013518
 -50.95753551 -54.49087222 -57.93151697 -61.24662365 -64.41083423
 -67.40717102 -70.22714496 -72.87020926 -75.34274099 -77.65675205
 -79.82852251 -81.87731891 -83.82431166 -85.69175064 -87.50240635
 -89.27924732]",707945.7843841319,72.95731904186326,53.47615980224091,50.0u,10.0m,1.4,1.0,2.0m,0.0m,0.001m,0.001m,0.5m,1.0m,1000.0m,Best
1,497.33090604156695u,0.43319639995111947u,1.2433272651039173u,6.03030303030303,1584.893192461108,72.95731904186326,33.69039950560227,77.7071842581273,0.18u,0.18u,2.964467737939248e-05u,0.002u,24.7,0.6000000000000014,34.58,"[1.00000000e+01 1.12201845e+01 1.25892541e+01 1.41253754e+01
 1.58489319e+01 1.77827941e+01 1.99526231e+01 2.23872114e+01
 2.51188643e+01 2.81838293e+01 3.16227766e+01 3.54813389e+01
 3.98107171e+01 4.46683592e+01 5.01187234e+01 5.62341325e+01
 6.30957344e+01 7.07945784e+01 7.94328235e+01 8.91250938e+01
 1.00000000e+02 1.12201845e+02 1.25892541e+02 1.41253754e+02
 1.58489319e+02 1.77827941e+02 1.99526231e+02 2.23872114e+02
 2.51188643e+02 2.81838293e+02 3.16227766e+02 3.54813389e+02
 3.98107171e+02 4.46683592e+02 5.01187234e+02 5.62341325e+02
 6.30957344e+02 7.07945784e+02 7.94328235e+02 8.91250938e+02
 1.00000000e+03 1.12201845e+03 1.25892541e+03 1.41253754e+03
 1.58489319e+03 1.77827941e+03 1.99526231e+03 2.23872114e+03
 2.51188643e+03 2.81838293e+03 3.16227766e+03 3.54813389e+03
 3.98107171e+03 4.46683592e+03 5.01187234e+03 5.62341325e+03
 6.30957344e+03 7.07945784e+03 7.94328235e+03 8.91250938e+03
 1.00000000e+04 1.12201845e+04 1.25892541e+04 1.41253754e+04
 1.58489319e+04 1.77827941e+04 1.99526231e+04 2.23872114e+04
 2.51188643e+04 2.81838293e+04 3.16227766e+04 3.54813389e+04
 3.98107171e+04 4.46683592e+04 5.01187234e+04 5.62341325e+04
 6.30957344e+04 7.07945784e+04 7.94328235e+04 8.91250938e+04
 1.00000000e+05 1.12201845e+05 1.25892541e+05 1.41253754e+05
 1.58489319e+05 1.77827941e+05 1.99526231e+05 2.23872114e+05
 2.51188643e+05 2.81838293e+05 3.16227766e+05 3.54813389e+05
 3.98107171e+05 4.46683592e+05 5.01187234e+05 5.62341325e+05
 6.30957344e+05 7.07945784e+05 7.94328235e+05 8.91250938e+05
 1.00000000e+06 1.12201845e+06 1.25892541e+06 1.41253754e+06
 1.58489319e+06 1.77827941e+06 1.99526231e+06 2.23872114e+06
 2.51188643e+06 2.81838293e+06 3.16227766e+06 3.54813389e+06
 3.98107171e+06 4.46683592e+06 5.01187234e+06 5.62341325e+06
 6.30957344e+06 7.07945784e+06 7.94328235e+06 8.91250938e+06
 1.00000000e+07 1.12201845e+07 1.25892541e+07 1.41253754e+07
 1.58489319e+07 1.77827941e+07 1.99526231e+07 2.23872114e+07
 2.51188643e+07 2.81838293e+07 3.16227766e+07 3.54813389e+07
 3.98107171e+07 4.46683592e+07 5.01187234e+07 5.62341325e+07
 6.30957344e+07 7.07945784e+07 7.94328235e+07 8.91250938e+07
 1.00000000e+08 1.12201845e+08 1.25892541e+08 1.41253754e+08
 1.58489319e+08 1.77827941e+08 1.99526231e+08 2.23872114e+08
 2.51188643e+08 2.81838293e+08 3.16227766e+08 3.54813389e+08
 3.98107171e+08 4.46683592e+08 5.01187234e+08 5.62341325e+08
 6.30957344e+08 7.07945784e+08 7.94328235e+08 8.91250938e+08
 1.00000000e+09]","[ 53.4761598   53.47611261  53.47605319  53.47597839  53.47588422
  53.47576568  53.47561644  53.47542857  53.47519207  53.47489436
  53.47451958  53.47404781  53.47345396  53.47270647  53.47176561
  53.47058143  53.46909109  53.4672156   53.46485564  53.46188646
  53.45815135  53.4534537   53.44754693  53.44012214  53.4307929
  53.41907651  53.40437125  53.38592894  53.36282226  53.3339064
  53.29777512  53.25271182  53.19663738  53.12705798  53.04101859
  52.93507023  52.80526236  52.64717452  52.45600246  52.22671204
  51.9542673   51.63392672  51.26158365  50.83410921  50.34964316
  49.807779    49.20960561  48.55759664  47.85537081  47.10737004
  46.31851145  45.49386307  44.63837711  43.75669609  42.85303139
  41.93110406  40.99413309  40.04485608  39.08556958  38.118179
  37.1442513   36.16506589  35.18166143  34.19487712  33.20538836
  32.21373688  31.22035581  30.22559036  29.22971471  28.23294558
  27.23545318  26.2373699   25.23879708  24.23981028  23.24046316
  22.24079034  21.24080918  20.24052067  19.23990951  18.2389433
  17.23757085  16.23571949  15.23329132  14.23015813  13.2261548
  12.22107088  11.21463999  10.20652653   9.19630926   8.18346113
   7.16732479   6.14708309   5.12172419   4.09000085   3.05038443
   2.00101428   0.9396452   -0.13640317  -1.23028824  -2.34566814
  -3.48669471  -4.6579608   -5.86438708  -7.11103717  -8.40285921
  -9.74436693 -11.1392919  -12.59025512 -14.09851394 -15.66383325
 -17.2845077  -18.95752984 -20.67886972 -22.44381317 -24.24730344
 -26.08424236 -27.94972488 -29.83919858 -31.74855328 -33.67415344
 -35.61282806 -37.56183234 -39.51879236 -41.48164089 -43.44854981
 -45.417862   -47.38802405 -49.35751999 -51.32480543 -53.28824157
 -55.2460286  -57.19613853 -59.13624873 -61.06367924 -62.97533882
 -64.86768794 -66.73672984 -68.57804327 -70.38687159 -72.15828046
 -73.88738862 -75.56966313 -77.2012523  -78.77931163 -80.30226714
 -81.76996325 -83.18366157 -84.54588917 -85.86016834 -87.13068388
 -88.36195017 -89.55852862 -90.72482356 -91.86496006 -92.98272968
 -94.08158234 -95.16464404 -96.23474689 -97.29446471 -98.346153
 -99.39199454]","[179.62855387 179.583232   179.53238066 179.4753254  179.4113096
 179.33948445 179.25889779 179.16848157 179.06703786 178.95322313
 178.82553076 178.68227149 178.52155162 178.34124872 178.13898476
 177.91209621 177.65760123 177.37216348 177.05205275 176.69310227
 176.29066307 175.83955578 175.33402091 174.76766893 174.13343264
 173.42352515 172.62940839 171.74177919 170.75058252 169.64506462
 168.41388294 167.0452937  165.52744216 163.84878341 161.99866098
 159.96806449 157.75057142 155.34344951 152.7488523  149.97498363
 147.03704805 143.95776193 140.76720239 137.50183953 134.20273766
 130.913094   127.67545159 124.52901179 121.50744432 118.6374604
 115.93823129 113.42156564 111.09265058 108.95112524 106.99227727
 105.20820545 103.58885158 102.122856   100.79822828  99.60284695
  98.52481311  97.55268615  96.67562801  95.88347952  95.16678741
  94.51679705  93.92542201  93.38519856  92.88923116  92.43113282
  92.00496324  91.60516634  91.22650824  90.86401634  90.5129195
  90.16858941  89.82648281  89.48208434  89.13084948  88.76814733
  88.38920269  87.98903728  87.56240958  87.10375346  86.60711562
  86.06609227  85.47376611  84.82264516  84.10460606  83.3108457
  82.43184676  81.45736508  80.37644952  79.1775087   77.84844297
  76.37686421  74.75042984  72.95731904  70.98687681  68.83044146
  66.48235058  63.94108511  61.21046148  58.30072227  55.2293211
  52.02117045  48.70814892  45.32776416  41.92103081  38.52980798
  35.19398249  31.94892628  28.8235808   25.83935926  23.00987339
  20.34134343  17.83347276  15.48055918  13.27265311  11.19663124
   9.23711201   7.3771852    5.59895922   3.88394726   2.2133217
   0.56806828  -1.07092923  -2.72284538  -4.40688298  -6.14223004
  -7.94797656  -9.84296202 -11.84552269 -13.97310654 -16.24172526
 -18.66522076 -21.2543403  -24.01564511 -26.95032277 -30.05303147
 -33.31096387 -36.70335936 -40.20169    -43.77067444 -47.37013518
 -50.95753551 -54.49087222 -57.93151697 -61.24662365 -64.41083423
 -67.40717102 -70.22714496 -72.87020926 -75.34274099 -77.65675205
 -79.82852251 -81.87731891 -83.82431166 -85.69175064 -87.50240635
 -89.27924732]",707945.7843841319,72.95731904186326,53.47615980224091,50.0u,10.0m,1.4,1.0,2.0m,0.0m,0.001m,0.001m,0.5m,1.0m,1000.0m,Best
2,497.33090604156695u,0.43319639995111947u,1.2433272651039173u,6.03030303030303,1584.893192461108,72.95731904186326,33.69039950560227,77.7071842581273,0.18u,0.18u,2.964467737939248e-05u,0.002u,24.7,0.6000000000000014,34.58,"[1.00000000e+01 1.12201845e+01 1.25892541e+01 1.41253754e+01
 1.58489319e+01 1.77827941e+01 1.99526231e+01 2.23872114e+01
 2.51188643e+01 2.81838293e+01 3.16227766e+01 3.54813389e+01
 3.98107171e+01 4.46683592e+01 5.01187234e+01 5.62341325e+01
 6.30957344e+01 7.07945784e+01 7.94328235e+01 8.91250938e+01
 1.00000000e+02 1.12201845e+02 1.25892541e+02 1.41253754e+02
 1.58489319e+02 1.77827941e+02 1.99526231e+02 2.23872114e+02
 2.51188643e+02 2.81838293e+02 3.16227766e+02 3.54813389e+02
 3.98107171e+02 4.46683592e+02 5.01187234e+02 5.62341325e+02
 6.30957344e+02 7.07945784e+02 7.94328235e+02 8.91250938e+02
 1.00000000e+03 1.12201845e+03 1.25892541e+03 1.41253754e+03
 1.58489319e+03 1.77827941e+03 1.99526231e+03 2.23872114e+03
 2.51188643e+03 2.81838293e+03 3.16227766e+03 3.54813389e+03
 3.98107171e+03 4.46683592e+03 5.01187234e+03 5.62341325e+03
 6.30957344e+03 7.07945784e+03 7.94328235e+03 8.91250938e+03
 1.00000000e+04 1.12201845e+04 1.25892541e+04 1.41253754e+04
 1.58489319e+04 1.77827941e+04 1.99526231e+04 2.23872114e+04
 2.51188643e+04 2.81838293e+04 3.16227766e+04 3.54813389e+04
 3.98107171e+04 4.46683592e+04 5.01187234e+04 5.62341325e+04
 6.30957344e+04 7.07945784e+04 7.94328235e+04 8.91250938e+04
 1.00000000e+05 1.12201845e+05 1.25892541e+05 1.41253754e+05
 1.58489319e+05 1.77827941e+05 1.99526231e+05 2.23872114e+05
 2.51188643e+05 2.81838293e+05 3.16227766e+05 3.54813389e+05
 3.98107171e+05 4.46683592e+05 5.01187234e+05 5.62341325e+05
 6.30957344e+05 7.07945784e+05 7.94328235e+05 8.91250938e+05
 1.00000000e+06 1.12201845e+06 1.25892541e+06 1.41253754e+06
 1.58489319e+06 1.77827941e+06 1.99526231e+06 2.23872114e+06
 2.51188643e+06 2.81838293e+06 3.16227766e+06 3.54813389e+06
 3.98107171e+06 4.46683592e+06 5.01187234e+06 5.62341325e+06
 6.30957344e+06 7.07945784e+06 7.94328235e+06 8.91250938e+06
 1.00000000e+07 1.12201845e+07 1.25892541e+07 1.41253754e+07
 1.58489319e+07 1.77827941e+07 1.99526231e+07 2.23872114e+07
 2.51188643e+07 2.81838293e+07 3.16227766e+07 3.54813389e+07
 3.98107171e+07 4.46683592e+07 5.01187234e+07 5.62341325e+07
 6.30957344e+07 7.07945784e+07 7.94328235e+07 8.91250938e+07
 1.00000000e+08 1.12201845e+08 1.25892541e+08 1.41253754e+08
 1.58489319e+08 1.77827941e+08 1.99526231e+08 2.23872114e+08
 2.51188643e+08 2.81838293e+08 3.16227766e+08 3.54813389e+08
 3.98107171e+08 4.46683592e+08 5.01187234e+08 5.62341325e+08
 6.30957344e+08 7.07945784e+08 7.94328235e+08 8.91250938e+08
 1.00000000e+09]","[ 53.4761598   53.47611261  53.47605319  53.47597839  53.47588422
  53.47576568  53.47561644  53.47542857  53.47519207  53.47489436
  53.47451958  53.47404781  53.47345396  53.47270647  53.47176561
  53.47058143  53.46909109  53.4672156   53.46485564  53.46188646
  53.45815135  53.4534537   53.44754693  53.44012214  53.4307929
  53.41907651  53.40437125  53.38592894  53.36282226  53.3339064
  53.29777512  53.25271182  53.19663738  53.12705798  53.04101859
  52.93507023  52.80526236  52.64717452  52.45600246  52.22671204
  51.9542673   51.63392672  51.26158365  50.83410921  50.34964316
  49.807779    49.20960561  48.55759664  47.85537081  47.10737004
  46.31851145  45.49386307  44.63837711  43.75669609  42.85303139
  41.93110406  40.99413309  40.04485608  39.08556958  38.118179
  37.1442513   36.16506589  35.18166143  34.19487712  33.20538836
  32.21373688  31.22035581  30.22559036  29.22971471  28.23294558
  27.23545318  26.2373699   25.23879708  24.23981028  23.24046316
  22.24079034  21.24080918  20.24052067  19.23990951  18.2389433
  17.23757085  16.23571949  15.23329132  14.23015813  13.2261548
  12.22107088  11.21463999  10.20652653   9.19630926   8.18346113
   7.16732479   6.14708309   5.12172419   4.09000085   3.05038443
   2.00101428   0.9396452   -0.13640317  -1.23028824  -2.34566814
  -3.48669471  -4.6579608   -5.86438708  -7.11103717  -8.40285921
  -9.74436693 -11.1392919  -12.59025512 -14.09851394 -15.66383325
 -17.2845077  -18.95752984 -20.67886972 -22.44381317 -24.24730344
 -26.08424236 -27.94972488 -29.83919858 -31.74855328 -33.67415344
 -35.61282806 -37.56183234 -39.51879236 -41.48164089 -43.44854981
 -45.417862   -47.38802405 -49.35751999 -51.32480543 -53.28824157
 -55.2460286  -57.19613853 -59.13624873 -61.06367924 -62.97533882
 -64.86768794 -66.73672984 -68.57804327 -70.38687159 -72.15828046
 -73.88738862 -75.56966313 -77.2012523  -78.77931163 -80.30226714
 -81.76996325 -83.18366157 -84.54588917 -85.86016834 -87.13068388
 -88.36195017 -89.55852862 -90.72482356 -91.86496006 -92.98272968
 -94.08158234 -95.16464404 -96.23474689 -97.29446471 -98.346153
 -99.39199454]","[179.62855387 179.583232   179.53238066 179.4753254  179.4113096
 179.33948445 179.25889779 179.16848157 179.06703786 178.95322313
 178.82553076 178.68227149 178.52155162 178.34124872 178.13898476
 177.91209621 177.65760123 177.37216348 177.05205275 176.69310227
 176.29066307 175.83955578 175.33402091 174.76766893 174.13343264
 173.42352515 172.62940839 171.74177919 170.75058252 169.64506462
 168.41388294 167.0452937  165.52744216 163.84878341 161.99866098
 159.96806449 157.75057142 155.34344951 152.7488523  149.97498363
 147.03704805 143.95776193 140.76720239 137.50183953 134.20273766
 130.913094   127.67545159 124.52901179 121.50744432 118.6374604
 115.93823129 113.42156564 111.09265058 108.95112524 106.99227727
 105.20820545 103.58885158 102.122856   100.79822828  99.60284695
